Number of measurement points: 43672
Sample Rate (Hz): 500
Low limit Ch0 (V): -10
Upper limit Ch0 (V): 10
Low limit Ch1 (V): -10
Upper limit Ch1 (V): 10

Index	Time[s]	Ch0[V]	Ch1[V]
0	0	-0.162509464193135	-1.76257998216897
1	0.002	-0.0903645777143538	-1.76386828371324
2	0.004	-0.0993826885242015	-1.76386828371324
3	0.006	-0.0929411808028817	-1.76644488680176
4	0.008	-0.0993826885242015	-1.76773318834603
5	0.01	-0.0942294823471457	-1.76644488680176
6	0.012	-0.0980943869799376	-1.76644488680176
7	0.014	-0.0942294823471457	-1.7651565852575
8	0.016	-0.0929411808028817	-1.76257998216897
9	0.018	-0.0942294823471457	-1.76257998216897
10	0.02	-0.0916528792586178	-1.76257998216897
11	0.022	-0.0916528792586178	-1.76257998216897
12	0.024	-0.0942294823471457	-1.76386828371324
13	0.026	-0.0916528792586178	-1.76644488680176
14	0.028	-0.100670990068465	-1.76644488680176
15	0.03	-0.0955177838914096	-1.76644488680176
16	0.032	-0.0980943869799376	-1.7651565852575
17	0.034	-0.0916528792586178	-1.76386828371324
18	0.036	-0.0968060854356736	-1.76129168062471
19	0.038	-0.0916528792586178	-1.76129168062471
20	0.04	-0.0916528792586178	-1.76129168062471
21	0.042	-0.0916528792586178	-1.76129168062471
22	0.044	-0.0903645777143538	-1.76257998216897
23	0.046	-0.0916528792586178	-1.7651565852575
24	0.048	-0.0942294823471457	-1.76644488680176
25	0.05	-0.0955177838914096	-1.7651565852575
26	0.052	-0.0929411808028817	-1.7651565852575
27	0.054	-0.0955177838914096	-1.76386828371324
28	0.056	-0.0903645777143538	-1.76129168062471
29	0.058	-0.0864996730815619	-1.76129168062471
30	0.06	-0.0903645777143538	-1.76129168062471
31	0.062	-0.0877879746258259	-1.76129168062471
32	0.064	-0.0968060854356736	-1.76257998216897
33	0.066	-0.0929411808028817	-1.7651565852575
34	0.068	-0.0942294823471457	-1.7651565852575
35	0.07	-0.0993826885242015	-1.7651565852575
36	0.072	-0.0903645777143538	-1.76386828371324
37	0.074	-0.0942294823471457	-1.76257998216897
38	0.076	-0.0942294823471457	-1.76000337908044
39	0.078	-0.0916528792586178	-1.76000337908044
40	0.08	-0.0916528792586178	-1.76000337908044
41	0.082	-0.0890762761700898	-1.76000337908044
42	0.084	-0.0916528792586178	-1.76129168062471
43	0.086	-0.0890762761700898	-1.76386828371324
44	0.088	-0.0929411808028817	-1.76386828371324
45	0.09	-0.0864996730815619	-1.76386828371324
46	0.092	-0.0890762761700898	-1.76386828371324
47	0.094	-0.0916528792586178	-1.76129168062471
48	0.096	-0.0929411808028817	-1.75871507753618
49	0.098	-0.0877879746258259	-1.75871507753618
50	0.1	-0.0916528792586178	-1.75871507753618
51	0.102	-0.0929411808028817	-1.75871507753618
52	0.104	-0.0929411808028817	-1.76129168062471
53	0.106	-0.0929411808028817	-1.76257998216897
54	0.108	-0.0968060854356736	-1.76257998216897
55	0.11	-0.0993826885242015	-1.76257998216897
56	0.112	-0.0864996730815619	-1.76257998216897
57	0.114	-0.0942294823471457	-1.76129168062471
58	0.116	-0.0916528792586178	-1.75871507753618
59	0.118	-0.0877879746258259	-1.75742677599192
60	0.12	-0.0929411808028817	-1.75871507753618
61	0.122	-0.0877879746258259	-1.75871507753618
62	0.124	-0.0916528792586178	-1.76000337908044
63	0.126	-0.0916528792586178	-1.76129168062471
64	0.128	-0.0903645777143538	-1.76257998216897
65	0.13	-0.0890762761700898	-1.76257998216897
66	0.132	-0.0864996730815619	-1.76129168062471
67	0.134	-0.0955177838914096	-1.76000337908044
68	0.136	-0.0929411808028817	-1.75871507753618
69	0.138	-0.0968060854356736	-1.75742677599192
70	0.14	-0.0916528792586178	-1.75742677599192
71	0.142	-0.0890762761700898	-1.75742677599192
72	0.144	-0.0916528792586178	-1.75871507753618
73	0.146	-0.0864996730815619	-1.76129168062471
74	0.148	-0.0942294823471457	-1.76257998216897
75	0.15	-0.0942294823471457	-1.76129168062471
76	0.152	-0.0864996730815619	-1.76129168062471
77	0.154	-0.0980943869799376	-1.76000337908044
78	0.156	-0.0864996730815619	-1.75742677599192
79	0.158	-0.0903645777143538	-1.75613847444765
80	0.16	-0.0916528792586178	-1.75742677599192
81	0.162	-0.0929411808028817	-1.75742677599192
82	0.164	-0.0864996730815619	-1.75871507753618
83	0.166	-0.0929411808028817	-1.76129168062471
84	0.168	-0.0877879746258259	-1.76129168062471
85	0.17	-0.0916528792586178	-1.76129168062471
86	0.172	-0.0929411808028817	-1.76000337908044
87	0.174	-0.100670990068465	-1.76000337908044
88	0.176	-0.0916528792586178	-1.75742677599192
89	0.178	-0.0929411808028817	-1.75613847444765
90	0.18	-0.0916528792586178	-1.75742677599192
91	0.182	-0.0929411808028817	-1.75613847444765
92	0.184	-0.085211371537298	-1.75871507753618
93	0.186	-0.0993826885242015	-1.76000337908044
94	0.188	-0.0955177838914096	-1.76129168062471
95	0.19	-0.0968060854356736	-1.76000337908044
96	0.192	-0.0916528792586178	-1.76000337908044
97	0.194	-0.0968060854356736	-1.75871507753618
98	0.196	-0.0916528792586178	-1.75613847444765
99	0.198	-0.0916528792586178	-1.75613847444765
100	0.2	-0.0929411808028817	-1.75613847444765
101	0.202	-0.0916528792586178	-1.75613847444765
102	0.204	-0.0968060854356736	-1.75871507753618
103	0.206	-0.0929411808028817	-1.76000337908044
104	0.208	-0.0968060854356736	-1.76000337908044
105	0.21	-0.0929411808028817	-1.76000337908044
106	0.212	-0.0942294823471457	-1.76000337908044
107	0.214	-0.0942294823471457	-1.75871507753618
108	0.216	-0.0916528792586178	-1.75485017290339
109	0.218	-0.0942294823471457	-1.75485017290339
110	0.22	-0.0955177838914096	-1.75485017290339
111	0.222	-0.0968060854356736	-1.75613847444765
112	0.224	-0.0916528792586178	-1.75613847444765
113	0.226	-0.0942294823471457	-1.75871507753618
114	0.228	-0.0942294823471457	-1.75871507753618
115	0.23	-0.0916528792586178	-1.75871507753618
116	0.232	-0.0942294823471457	-1.75871507753618
117	0.234	-0.0903645777143538	-1.75742677599192
118	0.236	-0.100670990068465	-1.75485017290339
119	0.238	-0.0903645777143538	-1.75356187135912
120	0.24	-0.0942294823471457	-1.75356187135912
121	0.242	-0.0903645777143538	-1.75485017290339
122	0.244	-0.0877879746258259	-1.75613847444765
123	0.246	-0.0929411808028817	-1.75871507753618
124	0.248	-0.0916528792586178	-1.75871507753618
125	0.25	-0.0968060854356736	-1.75871507753618
126	0.252	-0.0929411808028817	-1.75742677599192
127	0.254	-0.0942294823471457	-1.75613847444765
128	0.256	-0.0980943869799376	-1.75356187135912
129	0.258	-0.0903645777143538	-1.75356187135912
130	0.26	-0.0968060854356736	-1.75356187135912
131	0.262	-0.0903645777143538	-1.75356187135912
132	0.264	-0.0916528792586178	-1.75485017290339
133	0.266	-0.0890762761700898	-1.75613847444765
134	0.268	-0.0980943869799376	-1.75742677599192
135	0.27	-0.0955177838914096	-1.75613847444765
136	0.272	-0.0877879746258259	-1.75613847444765
137	0.274	-0.0955177838914096	-1.75485017290339
138	0.276	-0.0955177838914096	-1.75227356981486
139	0.278	-0.0968060854356736	-1.75227356981486
140	0.28	-0.0903645777143538	-1.7509852682706
141	0.282	-0.0955177838914096	-1.75227356981486
142	0.284	-0.0942294823471457	-1.75356187135912
143	0.286	-0.0955177838914096	-1.75485017290339
144	0.288	-0.0942294823471457	-1.75613847444765
145	0.29	-0.0916528792586178	-1.75613847444765
146	0.292	-0.0929411808028817	-1.75485017290339
147	0.294	-0.0942294823471457	-1.75356187135912
148	0.296	-0.0955177838914096	-1.7509852682706
149	0.298	-0.0955177838914096	-1.74969696672633
150	0.3	-0.0916528792586178	-1.7509852682706
151	0.302	-0.0955177838914096	-1.7509852682706
152	0.304	-0.0929411808028817	-1.7509852682706
153	0.306	-0.0968060854356736	-1.75485017290339
154	0.308	-0.0916528792586178	-1.75485017290339
155	0.31	-0.0993826885242015	-1.75485017290339
156	0.312	-0.0903645777143538	-1.75356187135912
157	0.314	-0.0955177838914096	-1.75227356981486
158	0.316	-0.0955177838914096	-1.74969696672633
159	0.318	-0.0968060854356736	-1.74969696672633
160	0.32	-0.0993826885242015	-1.74969696672633
161	0.322	-0.0916528792586178	-1.74969696672633
162	0.324	-0.0955177838914096	-1.7509852682706
163	0.326	-0.0929411808028817	-1.75356187135912
164	0.328	-0.0942294823471457	-1.75356187135912
165	0.33	-0.0968060854356736	-1.75227356981486
166	0.332	-0.0890762761700898	-1.75356187135912
167	0.334	-0.0916528792586178	-1.7509852682706
168	0.336	-0.0980943869799376	-1.74969696672633
169	0.338	-0.0955177838914096	-1.74840866518207
170	0.34	-0.0942294823471457	-1.74840866518207
171	0.342	-0.0929411808028817	-1.74840866518207
172	0.344	-0.0929411808028817	-1.74969696672633
173	0.346	-0.0929411808028817	-1.75227356981486
174	0.348	-0.100670990068465	-1.75356187135912
175	0.35	-0.0903645777143538	-1.75227356981486
176	0.352	-0.0942294823471457	-1.75227356981486
177	0.354	-0.0993826885242015	-1.7509852682706
178	0.356	-0.0942294823471457	-1.74969696672633
179	0.358	-0.0955177838914096	-1.74840866518207
180	0.36	-0.0955177838914096	-1.74840866518207
181	0.362	-0.0942294823471457	-1.74840866518207
182	0.364	-0.0903645777143538	-1.74969696672633
183	0.366	-0.0968060854356736	-1.75227356981486
184	0.368	-0.0942294823471457	-1.75227356981486
185	0.37	-0.0955177838914096	-1.75227356981486
186	0.372	-0.0968060854356736	-1.75227356981486
187	0.374	-0.0980943869799376	-1.74969696672633
188	0.376	-0.0942294823471457	-1.7471203636378
189	0.378	-0.0929411808028817	-1.74840866518207
190	0.38	-0.0916528792586178	-1.7471203636378
191	0.382	-0.0916528792586178	-1.7471203636378
192	0.384	-0.0916528792586178	-1.74969696672633
193	0.386	-0.100670990068465	-1.7509852682706
194	0.388	-0.0942294823471457	-1.7509852682706
195	0.39	-0.100670990068465	-1.7509852682706
196	0.392	-0.0890762761700898	-1.7509852682706
197	0.394	-0.0980943869799376	-1.74969696672633
198	0.396	-0.0955177838914096	-1.7471203636378
199	0.398	-0.0955177838914096	-1.74583206209354
200	0.4	-0.0929411808028817	-1.7471203636378
201	0.402	-0.0929411808028817	-1.7471203636378
202	0.404	-0.0955177838914096	-1.74840866518207
203	0.406	-0.0955177838914096	-1.7509852682706
204	0.408	-0.0980943869799376	-1.7509852682706
205	0.41	-0.100670990068465	-1.7509852682706
206	0.412	-0.0864996730815619	-1.74969696672633
207	0.414	-0.0993826885242015	-1.74840866518207
208	0.416	-0.0903645777143538	-1.74583206209354
209	0.418	-0.0955177838914096	-1.74583206209354
210	0.42	-0.0942294823471457	-1.74583206209354
211	0.422	-0.0929411808028817	-1.74583206209354
212	0.424	-0.0942294823471457	-1.7471203636378
213	0.426	-0.0916528792586178	-1.74969696672633
214	0.428	-0.0980943869799376	-1.74969696672633
215	0.43	-0.0955177838914096	-1.74969696672633
216	0.432	-0.0916528792586178	-1.74969696672633
217	0.434	-0.0929411808028817	-1.7471203636378
218	0.436	-0.103247593156993	-1.74454376054928
219	0.438	-0.0916528792586178	-1.74454376054928
220	0.44	-0.0903645777143538	-1.74583206209354
221	0.442	-0.0968060854356736	-1.74583206209354
222	0.444	-0.0903645777143538	-1.7471203636378
223	0.446	-0.0993826885242015	-1.74840866518207
224	0.448	-0.0942294823471457	-1.74969696672633
225	0.45	-0.0968060854356736	-1.74840866518207
226	0.452	-0.0955177838914096	-1.74840866518207
227	0.454	-0.0942294823471457	-1.7471203636378
228	0.456	-0.0916528792586178	-1.74454376054928
229	0.458	-0.0916528792586178	-1.74454376054928
230	0.46	-0.0916528792586178	-1.74454376054928
231	0.462	-0.0929411808028817	-1.74454376054928
232	0.464	-0.0942294823471457	-1.74583206209354
233	0.466	-0.0916528792586178	-1.74840866518207
234	0.468	-0.0890762761700898	-1.74840866518207
235	0.47	-0.0980943869799376	-1.74840866518207
236	0.472	-0.0864996730815619	-1.74840866518207
237	0.474	-0.0955177838914096	-1.7471203636378
238	0.476	-0.0916528792586178	-1.74454376054928
239	0.478	-0.0916528792586178	-1.74325545900501
240	0.48	-0.0942294823471457	-1.74325545900501
241	0.482	-0.0942294823471457	-1.74454376054928
242	0.484	-0.0955177838914096	-1.74454376054928
243	0.486	-0.0942294823471457	-1.7471203636378
244	0.488	-0.0929411808028817	-1.74840866518207
245	0.49	-0.0903645777143538	-1.7471203636378
246	0.492	-0.0955177838914096	-1.7471203636378
247	0.494	-0.0942294823471457	-1.74454376054928
248	0.496	-0.0890762761700898	-1.74325545900501
249	0.498	-0.0916528792586178	-1.74196715746075
250	0.5	-0.0890762761700898	-1.74325545900501
251	0.502	-0.0942294823471457	-1.74196715746075
252	0.504	-0.0929411808028817	-1.74454376054928
253	0.506	-0.0968060854356736	-1.74583206209354
254	0.508	-0.0929411808028817	-1.74583206209354
255	0.51	-0.0916528792586178	-1.7471203636378
256	0.512	-0.0903645777143538	-1.74583206209354
257	0.514	-0.0903645777143538	-1.74454376054928
258	0.516	-0.0942294823471457	-1.74196715746075
259	0.518	-0.0890762761700898	-1.74196715746075
260	0.52	-0.0916528792586178	-1.74196715746075
261	0.522	-0.0916528792586178	-1.74196715746075
262	0.524	-0.0980943869799376	-1.74325545900501
263	0.526	-0.0955177838914096	-1.74583206209354
264	0.528	-0.0903645777143538	-1.74583206209354
265	0.53	-0.0929411808028817	-1.74583206209354
266	0.532	-0.0877879746258259	-1.74583206209354
267	0.534	-0.0942294823471457	-1.74325545900501
268	0.536	-0.0980943869799376	-1.74196715746075
269	0.538	-0.0903645777143538	-1.74067885591649
270	0.54	-0.0903645777143538	-1.74067885591649
271	0.542	-0.0890762761700898	-1.74196715746075
272	0.544	-0.0955177838914096	-1.74196715746075
273	0.546	-0.0929411808028817	-1.74583206209354
274	0.548	-0.0942294823471457	-1.74583206209354
275	0.55	-0.0955177838914096	-1.74454376054928
276	0.552	-0.0864996730815619	-1.74454376054928
277	0.554	-0.0955177838914096	-1.74196715746075
278	0.556	-0.0916528792586178	-1.74067885591649
279	0.558	-0.0903645777143538	-1.73939055437222
280	0.56	-0.0903645777143538	-1.73939055437222
281	0.562	-0.0929411808028817	-1.74067885591649
282	0.564	-0.0929411808028817	-1.74196715746075
283	0.566	-0.0929411808028817	-1.74325545900501
284	0.568	-0.100670990068465	-1.74454376054928
285	0.57	-0.0993826885242015	-1.74454376054928
286	0.572	-0.0916528792586178	-1.74325545900501
287	0.574	-0.0916528792586178	-1.74196715746075
288	0.576	-0.0968060854356736	-1.73939055437222
289	0.578	-0.0890762761700898	-1.73939055437222
290	0.58	-0.0916528792586178	-1.73939055437222
291	0.582	-0.0942294823471457	-1.73939055437222
292	0.584	-0.0916528792586178	-1.74067885591649
293	0.586	-0.0980943869799376	-1.74325545900501
294	0.588	-0.0929411808028817	-1.74325545900501
295	0.59	-0.100670990068465	-1.74325545900501
296	0.592	-0.0903645777143538	-1.74325545900501
297	0.594	-0.0942294823471457	-1.74067885591649
298	0.596	-0.0980943869799376	-1.73939055437222
299	0.598	-0.0877879746258259	-1.73810225282796
300	0.6	-0.0942294823471457	-1.73810225282796
301	0.602	-0.0903645777143538	-1.73939055437222
302	0.604	-0.0955177838914096	-1.73939055437222
303	0.606	-0.0942294823471457	-1.74196715746075
304	0.608	-0.0968060854356736	-1.74325545900501
305	0.61	-0.0916528792586178	-1.74196715746075
306	0.612	-0.0916528792586178	-1.74196715746075
307	0.614	-0.0968060854356736	-1.74067885591649
308	0.616	-0.0916528792586178	-1.73810225282796
309	0.618	-0.0942294823471457	-1.73681395128369
310	0.62	-0.0942294823471457	-1.73810225282796
311	0.622	-0.0903645777143538	-1.73810225282796
312	0.624	-0.0929411808028817	-1.73939055437222
313	0.626	-0.0890762761700898	-1.74067885591649
314	0.628	-0.0968060854356736	-1.74196715746075
315	0.63	-0.0916528792586178	-1.74196715746075
316	0.632	-0.0955177838914096	-1.74067885591649
317	0.634	-0.0890762761700898	-1.73939055437222
318	0.636	-0.103247593156993	-1.73810225282796
319	0.638	-0.0916528792586178	-1.73681395128369
320	0.64	-0.0877879746258259	-1.73681395128369
321	0.642	-0.0903645777143538	-1.73681395128369
322	0.644	-0.0929411808028817	-1.73810225282796
323	0.646	-0.0929411808028817	-1.74067885591649
324	0.648	-0.0929411808028817	-1.74196715746075
325	0.65	-0.0929411808028817	-1.74067885591649
326	0.652	-0.0903645777143538	-1.74067885591649
327	0.654	-0.0864996730815619	-1.73939055437222
328	0.656	-0.0942294823471457	-1.73681395128369
329	0.658	-0.0929411808028817	-1.73552564973943
330	0.66	-0.0890762761700898	-1.73552564973943
331	0.662	-0.0890762761700898	-1.73681395128369
332	0.664	-0.0942294823471457	-1.73810225282796
333	0.666	-0.0890762761700898	-1.74067885591649
334	0.668	-0.0903645777143538	-1.73939055437222
335	0.67	-0.0942294823471457	-1.74067885591649
336	0.672	-0.0890762761700898	-1.73939055437222
337	0.674	-0.0929411808028817	-1.73810225282796
338	0.676	-0.0942294823471457	-1.73552564973943
339	0.678	-0.0877879746258259	-1.73423734819517
340	0.68	-0.0903645777143538	-1.73552564973943
341	0.682	-0.0864996730815619	-1.73552564973943
342	0.684	-0.0942294823471457	-1.73681395128369
343	0.686	-0.0903645777143538	-1.73939055437222
344	0.688	-0.0929411808028817	-1.73939055437222
345	0.69	-0.0916528792586178	-1.73939055437222
346	0.692	-0.083923069993034	-1.73810225282796
347	0.694	-0.0903645777143538	-1.73681395128369
348	0.696	-0.0942294823471457	-1.73552564973943
349	0.698	-0.0916528792586178	-1.73423734819517
350	0.7	-0.0903645777143538	-1.73423734819517
351	0.702	-0.0877879746258259	-1.73552564973943
352	0.704	-0.0903645777143538	-1.73681395128369
353	0.706	-0.0903645777143538	-1.73810225282796
354	0.708	-0.0929411808028817	-1.73810225282796
355	0.71	-0.0877879746258259	-1.73810225282796
356	0.712	-0.0890762761700898	-1.73810225282796
357	0.714	-0.0890762761700898	-1.73681395128369
358	0.716	-0.0890762761700898	-1.73423734819517
359	0.718	-0.0890762761700898	-1.7329490466509
360	0.72	-0.0890762761700898	-1.7329490466509
361	0.722	-0.0903645777143538	-1.73423734819517
362	0.724	-0.0903645777143538	-1.73552564973943
363	0.726	-0.0955177838914096	-1.73681395128369
364	0.728	-0.0890762761700898	-1.73681395128369
365	0.73	-0.0942294823471457	-1.73681395128369
366	0.732	-0.0916528792586178	-1.73681395128369
367	0.734	-0.0916528792586178	-1.73552564973943
368	0.736	-0.0955177838914096	-1.7329490466509
369	0.738	-0.0864996730815619	-1.73166074510664
370	0.74	-0.0916528792586178	-1.7329490466509
371	0.742	-0.0903645777143538	-1.73166074510664
372	0.744	-0.0890762761700898	-1.73423734819517
373	0.746	-0.0903645777143538	-1.73552564973943
374	0.748	-0.0903645777143538	-1.73681395128369
375	0.75	-0.0980943869799376	-1.73681395128369
376	0.752	-0.0890762761700898	-1.73552564973943
377	0.754	-0.0929411808028817	-1.73423734819517
378	0.756	-0.0942294823471457	-1.73166074510664
379	0.758	-0.0980943869799376	-1.73166074510664
380	0.76	-0.0903645777143538	-1.73166074510664
381	0.762	-0.0903645777143538	-1.73166074510664
382	0.764	-0.0903645777143538	-1.7329490466509
383	0.766	-0.0877879746258259	-1.73552564973943
384	0.768	-0.0929411808028817	-1.73552564973943
385	0.77	-0.0929411808028817	-1.73552564973943
386	0.772	-0.0864996730815619	-1.73423734819517
387	0.774	-0.0929411808028817	-1.7329490466509
388	0.776	-0.0864996730815619	-1.73037244356237
389	0.778	-0.0929411808028817	-1.73037244356237
390	0.78	-0.0877879746258259	-1.73037244356237
391	0.782	-0.0916528792586178	-1.73037244356237
392	0.784	-0.083923069993034	-1.73166074510664
393	0.786	-0.0929411808028817	-1.7329490466509
394	0.788	-0.0916528792586178	-1.73423734819517
395	0.79	-0.0890762761700898	-1.7329490466509
396	0.792	-0.0903645777143538	-1.7329490466509
397	0.794	-0.0955177838914096	-1.73166074510664
398	0.796	-0.0929411808028817	-1.73037244356237
399	0.798	-0.0890762761700898	-1.72908414201811
400	0.8	-0.0916528792586178	-1.72908414201811
401	0.802	-0.0877879746258259	-1.72908414201811
402	0.804	-0.0916528792586178	-1.73037244356237
403	0.806	-0.0903645777143538	-1.73166074510664
404	0.808	-0.0903645777143538	-1.7329490466509
405	0.81	-0.0916528792586178	-1.7329490466509
406	0.812	-0.0877879746258259	-1.7329490466509
407	0.814	-0.0942294823471457	-1.73037244356237
408	0.816	-0.0890762761700898	-1.72779584047385
409	0.818	-0.0903645777143538	-1.72779584047385
410	0.82	-0.0903645777143538	-1.72779584047385
411	0.822	-0.0877879746258259	-1.72779584047385
412	0.824	-0.0890762761700898	-1.72908414201811
413	0.826	-0.0916528792586178	-1.73166074510664
414	0.828	-0.0890762761700898	-1.73166074510664
415	0.83	-0.0929411808028817	-1.73166074510664
416	0.832	-0.08263476844877	-1.73037244356237
417	0.834	-0.0903645777143538	-1.72908414201811
