Number of measurement points: 29618
Sample Rate (Hz): 600
Low limit Ch0 (V): -10
Upper limit Ch0 (V): 10
Low limit Ch1 (V): -10
Upper limit Ch1 (V): 10

Index	Time[s]	Ch0[V]	Ch1[V]
0	0	0.0333123705349863	1.77509605837986
1	0.00166666666666667	-0.0375442143995315	1.77509605837986
2	0.00333333333333333	-0.0388325159437954	1.77380775683559
3	0.005	-0.0336793097667396	1.77380775683559
4	0.00666666666666667	-0.0349676113110036	1.77251945529133
5	0.00833333333333333	-0.0323910082224756	1.77380775683559
6	0.01	-0.0349676113110036	1.77509605837986
7	0.0116666666666667	-0.0323910082224756	1.77767266146839
8	0.0133333333333333	-0.0285261035896838	1.77767266146839
9	0.015	-0.0323910082224756	1.77767266146839
10	0.0166666666666667	-0.0375442143995315	1.77767266146839
11	0.0183333333333333	-0.0311027066782117	1.77638435992412
12	0.02	-0.0349676113110036	1.77509605837986
13	0.0216666666666667	-0.0401208174880594	1.77380775683559
14	0.0233333333333333	-0.0401208174880594	1.77380775683559
15	0.025	-0.0401208174880594	1.77380775683559
16	0.0266666666666667	-0.0414091190323234	1.77380775683559
17	0.0283333333333333	-0.0388325159437954	1.77380775683559
18	0.03	-0.0375442143995315	1.77509605837986
19	0.0316666666666667	-0.0401208174880594	1.77767266146839
20	0.0333333333333333	-0.0336793097667396	1.77767266146839
21	0.035	-0.0336793097667396	1.77767266146839
22	0.0366666666666667	-0.0362559128552675	1.77767266146839
23	0.0383333333333333	-0.0336793097667396	1.77767266146839
24	0.04	-0.0388325159437954	1.77509605837986
25	0.0416666666666667	-0.0375442143995315	1.77380775683559
26	0.0433333333333333	-0.0388325159437954	1.77380775683559
27	0.045	-0.0349676113110036	1.77380775683559
28	0.0466666666666667	-0.0349676113110036	1.77380775683559
29	0.0483333333333333	-0.0401208174880594	1.77380775683559
30	0.05	-0.0336793097667396	1.77509605837986
31	0.0516666666666667	-0.0349676113110036	1.77767266146839
32	0.0533333333333333	-0.0336793097667396	1.77767266146839
33	0.055	-0.0323910082224756	1.77767266146839
34	0.0566666666666667	-0.0285261035896838	1.77767266146839
35	0.0583333333333333	-0.0311027066782117	1.77767266146839
36	0.06	-0.0375442143995315	1.77638435992412
37	0.0616666666666667	-0.0323910082224756	1.77380775683559
38	0.0633333333333333	-0.0362559128552675	1.77380775683559
39	0.065	-0.0401208174880594	1.77380775683559
40	0.0666666666666667	-0.0336793097667396	1.77380775683559
41	0.0683333333333333	-0.0362559128552675	1.77380775683559
42	0.07	-0.0349676113110036	1.77509605837986
43	0.0716666666666667	-0.0323910082224756	1.77767266146839
44	0.0733333333333333	-0.0311027066782117	1.77767266146839
45	0.075	-0.0298144051339477	1.77767266146839
46	0.0766666666666667	-0.0336793097667396	1.77767266146839
47	0.0783333333333333	-0.0336793097667396	1.77638435992412
48	0.08	-0.0336793097667396	1.77638435992412
49	0.0816666666666667	-0.0311027066782117	1.77380775683559
50	0.0833333333333333	-0.0375442143995315	1.77380775683559
51	0.085	-0.0375442143995315	1.77251945529133
52	0.0866666666666667	-0.0388325159437954	1.77380775683559
53	0.0883333333333333	-0.0298144051339477	1.77380775683559
54	0.09	-0.0349676113110036	1.77509605837986
55	0.0916666666666667	-0.0349676113110036	1.77767266146839
56	0.0933333333333333	-0.0323910082224756	1.77767266146839
57	0.095	-0.0311027066782117	1.77767266146839
58	0.0966666666666667	-0.0336793097667396	1.77767266146839
59	0.0983333333333333	-0.0362559128552675	1.77638435992412
60	0.1	-0.0298144051339477	1.77638435992412
61	0.101666666666667	-0.0401208174880594	1.77380775683559
62	0.103333333333333	-0.0388325159437954	1.77380775683559
63	0.105	-0.0362559128552675	1.77380775683559
64	0.106666666666667	-0.0336793097667396	1.77251945529133
65	0.108333333333333	-0.0349676113110036	1.77380775683559
66	0.11	-0.0311027066782117	1.77509605837986
67	0.111666666666667	-0.0388325159437954	1.77638435992412
68	0.113333333333333	-0.0336793097667396	1.77767266146839
69	0.115	-0.0285261035896838	1.77767266146839
70	0.116666666666667	-0.0349676113110036	1.77767266146839
71	0.118333333333333	-0.0362559128552675	1.77638435992412
72	0.12	-0.0336793097667396	1.77638435992412
73	0.121666666666667	-0.0336793097667396	1.77380775683559
74	0.123333333333333	-0.0401208174880594	1.77251945529133
75	0.125	-0.0362559128552675	1.77380775683559
76	0.126666666666667	-0.0362559128552675	1.77251945529133
77	0.128333333333333	-0.0401208174880594	1.77380775683559
78	0.13	-0.0323910082224756	1.77509605837986
79	0.131666666666667	-0.0323910082224756	1.77767266146839
80	0.133333333333333	-0.0349676113110036	1.77767266146839
81	0.135	-0.0362559128552675	1.77767266146839
82	0.136666666666667	-0.0323910082224756	1.77638435992412
83	0.138333333333333	-0.0362559128552675	1.77767266146839
84	0.14	-0.0375442143995315	1.77509605837986
85	0.141666666666667	-0.0362559128552675	1.77380775683559
86	0.143333333333333	-0.0388325159437954	1.77251945529133
87	0.145	-0.0388325159437954	1.77251945529133
88	0.146666666666667	-0.0349676113110036	1.77380775683559
89	0.148333333333333	-0.0375442143995315	1.77380775683559
90	0.15	-0.0401208174880594	1.77509605837986
91	0.151666666666667	-0.0388325159437954	1.77767266146839
92	0.153333333333333	-0.0311027066782117	1.77767266146839
93	0.155	-0.0375442143995315	1.77767266146839
94	0.156666666666667	-0.0311027066782117	1.77767266146839
95	0.158333333333333	-0.0349676113110036	1.77767266146839
96	0.16	-0.0388325159437954	1.77638435992412
97	0.161666666666667	-0.0375442143995315	1.77380775683559
98	0.163333333333333	-0.0362559128552675	1.77251945529133
99	0.165	-0.0349676113110036	1.77380775683559
100	0.166666666666667	-0.0388325159437954	1.77251945529133
101	0.168333333333333	-0.0336793097667396	1.77380775683559
102	0.17	-0.0311027066782117	1.77509605837986
103	0.171666666666667	-0.0375442143995315	1.77638435992412
104	0.173333333333333	-0.0285261035896838	1.77767266146839
105	0.175	-0.0311027066782117	1.77767266146839
106	0.176666666666667	-0.0323910082224756	1.77767266146839
107	0.178333333333333	-0.0323910082224756	1.77767266146839
108	0.18	-0.0336793097667396	1.77638435992412
109	0.181666666666667	-0.0375442143995315	1.77380775683559
110	0.183333333333333	-0.0362559128552675	1.77380775683559
111	0.185	-0.0336793097667396	1.77380775683559
112	0.186666666666667	-0.0362559128552675	1.77380775683559
113	0.188333333333333	-0.0388325159437954	1.77380775683559
114	0.19	-0.0311027066782117	1.77509605837986
115	0.191666666666667	-0.0349676113110036	1.77638435992412
116	0.193333333333333	-0.0336793097667396	1.77767266146839
117	0.195	-0.0298144051339477	1.77767266146839
118	0.196666666666667	-0.0349676113110036	1.77767266146839
119	0.198333333333333	-0.0336793097667396	1.77767266146839
120	0.2	-0.0375442143995315	1.77638435992412
121	0.201666666666667	-0.0336793097667396	1.77380775683559
122	0.203333333333333	-0.0375442143995315	1.77380775683559
123	0.205	-0.0362559128552675	1.77380775683559
124	0.206666666666667	-0.0375442143995315	1.77380775683559
125	0.208333333333333	-0.0362559128552675	1.77380775683559
126	0.21	-0.0336793097667396	1.77509605837986
127	0.211666666666667	-0.0311027066782117	1.77638435992412
128	0.213333333333333	-0.0362559128552675	1.77767266146839
129	0.215	-0.0336793097667396	1.77767266146839
130	0.216666666666667	-0.0349676113110036	1.77767266146839
131	0.218333333333333	-0.0349676113110036	1.77638435992412
132	0.22	-0.0336793097667396	1.77638435992412
133	0.221666666666667	-0.0375442143995315	1.77380775683559
134	0.223333333333333	-0.0375442143995315	1.77380775683559
135	0.225	-0.0375442143995315	1.77380775683559
136	0.226666666666667	-0.0323910082224756	1.77380775683559
137	0.228333333333333	-0.0349676113110036	1.77380775683559
138	0.23	-0.0336793097667396	1.77509605837986
139	0.231666666666667	-0.0323910082224756	1.77638435992412
140	0.233333333333333	-0.0375442143995315	1.77767266146839
141	0.235	-0.0362559128552675	1.77767266146839
142	0.236666666666667	-0.0336793097667396	1.77767266146839
143	0.238333333333333	-0.0336793097667396	1.77638435992412
144	0.24	-0.0349676113110036	1.77638435992412
145	0.241666666666667	-0.0388325159437954	1.77380775683559
146	0.243333333333333	-0.0388325159437954	1.77380775683559
147	0.245	-0.0349676113110036	1.77251945529133
148	0.246666666666667	-0.0388325159437954	1.77380775683559
149	0.248333333333333	-0.0285261035896838	1.77380775683559
150	0.25	-0.0336793097667396	1.77509605837986
151	0.251666666666667	-0.0336793097667396	1.77638435992412
152	0.253333333333333	-0.0311027066782117	1.77767266146839
153	0.255	-0.0336793097667396	1.77767266146839
154	0.256666666666667	-0.0349676113110036	1.77767266146839
155	0.258333333333333	-0.0336793097667396	1.77638435992412
156	0.26	-0.0311027066782117	1.77638435992412
157	0.261666666666667	-0.0336793097667396	1.77380775683559
158	0.263333333333333	-0.0375442143995315	1.77380775683559
159	0.265	-0.0349676113110036	1.77380775683559
160	0.266666666666667	-0.0362559128552675	1.77380775683559
161	0.268333333333333	-0.0349676113110036	1.77380775683559
162	0.27	-0.0323910082224756	1.77509605837986
163	0.271666666666667	-0.0323910082224756	1.77767266146839
164	0.273333333333333	-0.0323910082224756	1.77767266146839
165	0.275	-0.0336793097667396	1.77767266146839
166	0.276666666666667	-0.0323910082224756	1.77638435992412
167	0.278333333333333	-0.0336793097667396	1.77767266146839
168	0.28	-0.0323910082224756	1.77638435992412
169	0.281666666666667	-0.0362559128552675	1.77380775683559
170	0.283333333333333	-0.0426974205765873	1.77380775683559
171	0.285	-0.0362559128552675	1.77380775683559
172	0.286666666666667	-0.0375442143995315	1.77380775683559
173	0.288333333333333	-0.0401208174880594	1.77380775683559
174	0.29	-0.0401208174880594	1.77509605837986
175	0.291666666666667	-0.0336793097667396	1.77767266146839
176	0.293333333333333	-0.0349676113110036	1.77767266146839
177	0.295	-0.0362559128552675	1.77767266146839
178	0.296666666666667	-0.0311027066782117	1.77767266146839
179	0.298333333333333	-0.0362559128552675	1.77767266146839
180	0.3	-0.0388325159437954	1.77638435992412
181	0.301666666666667	-0.0298144051339477	1.77380775683559
182	0.303333333333333	-0.0401208174880594	1.77251945529133
183	0.305	-0.0375442143995315	1.77380775683559
184	0.306666666666667	-0.0375442143995315	1.77380775683559
185	0.308333333333333	-0.0336793097667396	1.77380775683559
186	0.31	-0.0336793097667396	1.77509605837986
187	0.311666666666667	-0.0323910082224756	1.77638435992412
188	0.313333333333333	-0.0362559128552675	1.77767266146839
189	0.315	-0.0323910082224756	1.77767266146839
190	0.316666666666667	-0.0375442143995315	1.77767266146839
191	0.318333333333333	-0.0323910082224756	1.77767266146839
192	0.32	-0.0349676113110036	1.77638435992412
193	0.321666666666667	-0.0362559128552675	1.77380775683559
194	0.323333333333333	-0.0349676113110036	1.77380775683559
195	0.325	-0.0388325159437954	1.77380775683559
196	0.326666666666667	-0.0375442143995315	1.77380775683559
197	0.328333333333333	-0.0311027066782117	1.77380775683559
198	0.33	-0.0311027066782117	1.77509605837986
199	0.331666666666667	-0.0388325159437954	1.77638435992412
200	0.333333333333333	-0.0285261035896838	1.77767266146839
201	0.335	-0.0336793097667396	1.77767266146839
202	0.336666666666667	-0.0349676113110036	1.77767266146839
203	0.338333333333333	-0.0323910082224756	1.77767266146839
204	0.34	-0.0311027066782117	1.77638435992412
205	0.341666666666667	-0.0375442143995315	1.77509605837986
206	0.343333333333333	-0.0375442143995315	1.77251945529133
207	0.345	-0.0362559128552675	1.77380775683559
208	0.346666666666667	-0.0336793097667396	1.77380775683559
209	0.348333333333333	-0.0388325159437954	1.77380775683559
210	0.35	-0.0375442143995315	1.77509605837986
211	0.351666666666667	-0.0349676113110036	1.77638435992412
212	0.353333333333333	-0.0349676113110036	1.77767266146839
213	0.355	-0.0336793097667396	1.77767266146839
214	0.356666666666667	-0.0349676113110036	1.77767266146839
215	0.358333333333333	-0.0349676113110036	1.77767266146839
216	0.36	-0.0311027066782117	1.77638435992412
217	0.361666666666667	-0.0336793097667396	1.77380775683559
218	0.363333333333333	-0.0375442143995315	1.77380775683559
219	0.365	-0.0388325159437954	1.77251945529133
220	0.366666666666667	-0.0375442143995315	1.77380775683559
221	0.368333333333333	-0.0388325159437954	1.77380775683559
222	0.37	-0.0375442143995315	1.77509605837986
223	0.371666666666667	-0.0323910082224756	1.77638435992412
224	0.373333333333333	-0.0388325159437954	1.77767266146839
225	0.375	-0.0311027066782117	1.77767266146839
226	0.376666666666667	-0.0323910082224756	1.77767266146839
227	0.378333333333333	-0.0336793097667396	1.77767266146839
228	0.38	-0.0349676113110036	1.77638435992412
229	0.381666666666667	-0.0375442143995315	1.77380775683559
230	0.383333333333333	-0.0362559128552675	1.77251945529133
231	0.385	-0.0362559128552675	1.77380775683559
232	0.386666666666667	-0.0349676113110036	1.77251945529133
233	0.388333333333333	-0.0323910082224756	1.77380775683559
234	0.39	-0.0336793097667396	1.77509605837986
235	0.391666666666667	-0.0349676113110036	1.77638435992412
236	0.393333333333333	-0.0323910082224756	1.77767266146839
237	0.395	-0.0349676113110036	1.77767266146839
238	0.396666666666667	-0.0349676113110036	1.77767266146839
239	0.398333333333333	-0.0336793097667396	1.77767266146839
240	0.4	-0.0349676113110036	1.77638435992412
241	0.401666666666667	-0.0336793097667396	1.77380775683559
242	0.403333333333333	-0.0311027066782117	1.77380775683559
243	0.405	-0.0349676113110036	1.77251945529133
244	0.406666666666667	-0.0349676113110036	1.77380775683559
245	0.408333333333333	-0.0272378020454198	1.77380775683559
246	0.41	-0.0298144051339477	1.77509605837986
247	0.411666666666667	-0.0323910082224756	1.77767266146839
248	0.413333333333333	-0.0298144051339477	1.77767266146839
249	0.415	-0.0323910082224756	1.77767266146839
250	0.416666666666667	-0.0336793097667396	1.77767266146839
251	0.418333333333333	-0.0349676113110036	1.77767266146839
252	0.42	-0.0323910082224756	1.77638435992412
253	0.421666666666667	-0.0362559128552675	1.77380775683559
254	0.423333333333333	-0.0375442143995315	1.77380775683559
255	0.425	-0.0388325159437954	1.77380775683559
256	0.426666666666667	-0.0375442143995315	1.77251945529133
257	0.428333333333333	-0.0323910082224756	1.77380775683559
258	0.43	-0.0311027066782117	1.77509605837986
259	0.431666666666667	-0.0336793097667396	1.77638435992412
260	0.433333333333333	-0.0375442143995315	1.77896096301265
261	0.435	-0.0272378020454198	1.77638435992412
262	0.436666666666667	-0.0323910082224756	1.77767266146839
263	0.438333333333333	-0.0349676113110036	1.77638435992412
264	0.44	-0.0336793097667396	1.77638435992412
265	0.441666666666667	-0.0323910082224756	1.77509605837986
266	0.443333333333333	-0.0336793097667396	1.77380775683559
267	0.445	-0.0375442143995315	1.77251945529133
268	0.446666666666667	-0.0311027066782117	1.77380775683559
269	0.448333333333333	-0.0375442143995315	1.77380775683559
270	0.45	-0.0349676113110036	1.77509605837986
271	0.451666666666667	-0.0349676113110036	1.77767266146839
272	0.453333333333333	-0.0336793097667396	1.77767266146839
273	0.455	-0.0336793097667396	1.77767266146839
274	0.456666666666667	-0.0311027066782117	1.77767266146839
275	0.458333333333333	-0.0311027066782117	1.77767266146839
276	0.46	-0.0349676113110036	1.77638435992412
277	0.461666666666667	-0.0388325159437954	1.77380775683559
278	0.463333333333333	-0.0349676113110036	1.77380775683559
279	0.465	-0.0401208174880594	1.77380775683559
280	0.466666666666667	-0.0388325159437954	1.77380775683559
281	0.468333333333333	-0.0349676113110036	1.77380775683559
282	0.47	-0.0401208174880594	1.77509605837986
283	0.471666666666667	-0.0375442143995315	1.77638435992412
284	0.473333333333333	-0.0298144051339477	1.77767266146839
285	0.475	-0.0323910082224756	1.77767266146839
286	0.476666666666667	-0.0311027066782117	1.77767266146839
287	0.478333333333333	-0.0349676113110036	1.77638435992412
288	0.48	-0.0349676113110036	1.77638435992412
289	0.481666666666667	-0.0336793097667396	1.77509605837986
290	0.483333333333333	-0.0349676113110036	1.77380775683559
291	0.485	-0.0298144051339477	1.77380775683559
292	0.486666666666667	-0.0362559128552675	1.77380775683559
293	0.488333333333333	-0.0388325159437954	1.77380775683559
294	0.49	-0.0285261035896838	1.77380775683559
295	0.491666666666667	-0.0375442143995315	1.77638435992412
296	0.493333333333333	-0.0375442143995315	1.77767266146839
297	0.495	-0.0298144051339477	1.77767266146839
298	0.496666666666667	-0.0311027066782117	1.77767266146839
299	0.498333333333333	-0.0323910082224756	1.77638435992412
300	0.5	-0.0349676113110036	1.77638435992412
301	0.501666666666667	-0.0336793097667396	1.77380775683559
302	0.503333333333333	-0.0375442143995315	1.77251945529133
303	0.505	-0.0323910082224756	1.77380775683559
304	0.506666666666667	-0.0375442143995315	1.77251945529133
305	0.508333333333333	-0.0401208174880594	1.77380775683559
306	0.51	-0.0311027066782117	1.77509605837986
307	0.511666666666667	-0.0311027066782117	1.77638435992412
308	0.513333333333333	-0.0362559128552675	1.77767266146839
309	0.515	-0.0362559128552675	1.77767266146839
310	0.516666666666667	-0.0336793097667396	1.77767266146839
311	0.518333333333333	-0.0311027066782117	1.77638435992412
312	0.52	-0.0323910082224756	1.77638435992412
313	0.521666666666667	-0.0323910082224756	1.77380775683559
314	0.523333333333333	-0.0362559128552675	1.77380775683559
315	0.525	-0.0426974205765873	1.77380775683559
316	0.526666666666667	-0.0349676113110036	1.77380775683559
317	0.528333333333333	-0.0375442143995315	1.77380775683559
318	0.53	-0.0311027066782117	1.77380775683559
319	0.531666666666667	-0.0323910082224756	1.77638435992412
320	0.533333333333333	-0.0323910082224756	1.77767266146839
321	0.535	-0.0362559128552675	1.77767266146839
322	0.536666666666667	-0.0349676113110036	1.77767266146839
323	0.538333333333333	-0.0323910082224756	1.77767266146839
324	0.54	-0.0349676113110036	1.77638435992412
325	0.541666666666667	-0.0323910082224756	1.77380775683559
326	0.543333333333333	-0.0311027066782117	1.77380775683559
327	0.545	-0.0362559128552675	1.77251945529133
328	0.546666666666667	-0.0388325159437954	1.77380775683559
329	0.548333333333333	-0.0349676113110036	1.77380775683559
330	0.55	-0.0349676113110036	1.77509605837986
331	0.551666666666667	-0.0323910082224756	1.77638435992412
332	0.553333333333333	-0.0349676113110036	1.77767266146839
333	0.555	-0.0298144051339477	1.77767266146839
334	0.556666666666667	-0.0362559128552675	1.77767266146839
335	0.558333333333333	-0.0349676113110036	1.77767266146839
336	0.56	-0.0311027066782117	1.77638435992412
337	0.561666666666667	-0.0388325159437954	1.77509605837986
338	0.563333333333333	-0.0362559128552675	1.77380775683559
339	0.565	-0.0388325159437954	1.77251945529133
340	0.566666666666667	-0.0375442143995315	1.77380775683559
341	0.568333333333333	-0.0375442143995315	1.77380775683559
342	0.57	-0.0298144051339477	1.77380775683559
343	0.571666666666667	-0.0401208174880594	1.77767266146839
344	0.573333333333333	-0.0349676113110036	1.77767266146839
345	0.575	-0.0336793097667396	1.77896096301265
346	0.576666666666667	-0.0323910082224756	1.77767266146839
347	0.578333333333333	-0.0349676113110036	1.77767266146839
348	0.58	-0.0311027066782117	1.77638435992412
349	0.581666666666667	-0.0375442143995315	1.77380775683559
350	0.583333333333333	-0.0401208174880594	1.77380775683559
351	0.585	-0.0375442143995315	1.77380775683559
352	0.586666666666667	-0.0362559128552675	1.77380775683559
353	0.588333333333333	-0.0375442143995315	1.77380775683559
354	0.59	-0.0323910082224756	1.77380775683559
355	0.591666666666667	-0.0323910082224756	1.77638435992412
356	0.593333333333333	-0.0336793097667396	1.77767266146839
357	0.595	-0.0375442143995315	1.77767266146839
358	0.596666666666667	-0.0323910082224756	1.77767266146839
359	0.598333333333333	-0.0336793097667396	1.77638435992412
360	0.6	-0.0349676113110036	1.77638435992412
361	0.601666666666667	-0.0298144051339477	1.77380775683559
