Number of measurement points: 16496
Sample Rate (Hz): 300
Low limit Ch0 (V): -10
Upper limit Ch0 (V): 10
Low limit Ch1 (V): -10
Upper limit Ch1 (V): 10

Index	Time[s]	Ch0[V]	Ch1[V]
0	0	-0.0697517530061305	-1.63890303391963
1	0.00333333333333333	-0.0723283560946584	-1.63761473237537
2	0.00666666666666667	-0.0736166576389223	-1.63374982774258
3	0.01	-0.0658868483733386	-1.63374982774258
4	0.0133333333333333	-0.0710400545503944	-1.63374982774258
5	0.0166666666666667	-0.0684634514618665	-1.6363264308311
6	0.02	-0.0710400545503944	-1.63761473237537
7	0.0233333333333333	-0.0697517530061305	-1.6363264308311
8	0.0266666666666667	-0.0710400545503944	-1.63374982774258
9	0.03	-0.0633102452848107	-1.63246152619831
10	0.0333333333333333	-0.0697517530061305	-1.63374982774258
11	0.0366666666666667	-0.0671751499176025	-1.6363264308311
12	0.04	-0.0697517530061305	-1.6363264308311
13	0.0433333333333333	-0.0723283560946584	-1.6363264308311
14	0.0466666666666667	-0.0710400545503944	-1.63246152619831
15	0.05	-0.0633102452848107	-1.63117322465405
16	0.0533333333333333	-0.0658868483733386	-1.63246152619831
17	0.0566666666666667	-0.0684634514618665	-1.6363264308311
18	0.06	-0.0723283560946584	-1.6363264308311
19	0.0633333333333333	-0.0697517530061305	-1.63503812928684
20	0.0666666666666667	-0.0658868483733386	-1.63117322465405
21	0.07	-0.0658868483733386	-1.62988492310978
22	0.0733333333333333	-0.0671751499176025	-1.63117322465405
23	0.0766666666666667	-0.0658868483733386	-1.63374982774258
24	0.08	-0.0710400545503944	-1.63503812928684
25	0.0833333333333333	-0.0658868483733386	-1.63374982774258
26	0.0866666666666667	-0.0645985468290746	-1.62988492310978
27	0.09	-0.0710400545503944	-1.62988492310978
28	0.0933333333333333	-0.0645985468290746	-1.62988492310978
29	0.0966666666666667	-0.0710400545503944	-1.63374982774258
30	0.1	-0.0671751499176025	-1.63374982774258
31	0.103333333333333	-0.0684634514618665	-1.63374982774258
32	0.106666666666667	-0.0697517530061305	-1.62988492310978
33	0.11	-0.0671751499176025	-1.62859662156552
34	0.113333333333333	-0.0671751499176025	-1.62859662156552
35	0.116666666666667	-0.0697517530061305	-1.63246152619831
36	0.12	-0.0671751499176025	-1.63246152619831
37	0.123333333333333	-0.0723283560946584	-1.63246152619831
38	0.126666666666667	-0.0671751499176025	-1.62859662156552
39	0.13	-0.0658868483733386	-1.62859662156552
40	0.133333333333333	-0.0658868483733386	-1.62859662156552
41	0.136666666666667	-0.0658868483733386	-1.63246152619831
42	0.14	-0.0684634514618665	-1.63246152619831
43	0.143333333333333	-0.0684634514618665	-1.63117322465405
44	0.146666666666667	-0.0658868483733386	-1.62730832002126
45	0.15	-0.0697517530061305	-1.62602001847699
46	0.153333333333333	-0.0633102452848107	-1.62730832002126
47	0.156666666666667	-0.0697517530061305	-1.62988492310978
48	0.16	-0.0671751499176025	-1.62988492310978
49	0.163333333333333	-0.0671751499176025	-1.62988492310978
50	0.166666666666667	-0.0697517530061305	-1.62602001847699
51	0.17	-0.0684634514618665	-1.62602001847699
52	0.173333333333333	-0.0710400545503944	-1.62730832002126
53	0.176666666666667	-0.0697517530061305	-1.62988492310978
54	0.18	-0.0723283560946584	-1.62988492310978
55	0.183333333333333	-0.0710400545503944	-1.62988492310978
56	0.186666666666667	-0.0671751499176025	-1.62473171693273
57	0.19	-0.0710400545503944	-1.62473171693273
58	0.193333333333333	-0.0671751499176025	-1.62473171693273
59	0.196666666666667	-0.0710400545503944	-1.62859662156552
60	0.2	-0.0774815622717142	-1.62859662156552
61	0.203333333333333	-0.0710400545503944	-1.62859662156552
62	0.206666666666667	-0.0697517530061305	-1.62473171693273
63	0.21	-0.0736166576389223	-1.62344341538846
64	0.213333333333333	-0.0671751499176025	-1.62473171693273
65	0.216666666666667	-0.0736166576389223	-1.62730832002126
66	0.22	-0.0697517530061305	-1.62730832002126
67	0.223333333333333	-0.0710400545503944	-1.62602001847699
68	0.226666666666667	-0.0723283560946584	-1.62344341538846
69	0.23	-0.0671751499176025	-1.6221551138442
70	0.233333333333333	-0.0723283560946584	-1.6221551138442
71	0.236666666666667	-0.0697517530061305	-1.62602001847699
72	0.24	-0.0749049591831863	-1.62602001847699
73	0.243333333333333	-0.0749049591831863	-1.62602001847699
74	0.246666666666667	-0.0736166576389223	-1.62086681229994
75	0.25	-0.0697517530061305	-1.62086681229994
76	0.253333333333333	-0.0710400545503944	-1.62086681229994
77	0.256666666666667	-0.0749049591831863	-1.62473171693273
78	0.26	-0.0787698638159782	-1.62473171693273
79	0.263333333333333	-0.0749049591831863	-1.62344341538846
80	0.266666666666667	-0.0736166576389223	-1.61957851075567
81	0.27	-0.0736166576389223	-1.61957851075567
82	0.273333333333333	-0.0736166576389223	-1.61957851075567
83	0.276666666666667	-0.0761932607274503	-1.6221551138442
84	0.28	-0.0787698638159782	-1.62344341538846
85	0.283333333333333	-0.0800581653602421	-1.6221551138442
86	0.286666666666667	-0.0787698638159782	-1.61829020921141
87	0.29	-0.0761932607274503	-1.61829020921141
88	0.293333333333333	-0.0761932607274503	-1.61829020921141
89	0.296666666666667	-0.0761932607274503	-1.62086681229994
90	0.3	-0.0813464669045061	-1.62086681229994
91	0.303333333333333	-0.0813464669045061	-1.62086681229994
92	0.306666666666667	-0.0774815622717142	-1.61700190766715
93	0.31	-0.0774815622717142	-1.61571360612288
94	0.313333333333333	-0.0813464669045061	-1.61700190766715
95	0.316666666666667	-0.0749049591831863	-1.61957851075567
96	0.32	-0.0787698638159782	-1.61957851075567
97	0.323333333333333	-0.08263476844877	-1.61957851075567
98	0.326666666666667	-0.0761932607274503	-1.61571360612288
99	0.33	-0.0800581653602421	-1.61442530457862
100	0.333333333333333	-0.0761932607274503	-1.61571360612288
101	0.336666666666667	-0.0800581653602421	-1.61829020921141
102	0.34	-0.0813464669045061	-1.61957851075567
103	0.343333333333333	-0.0813464669045061	-1.61829020921141
104	0.346666666666667	-0.0774815622717142	-1.61442530457862
105	0.35	-0.0787698638159782	-1.61442530457862
106	0.353333333333333	-0.0736166576389223	-1.61442530457862
107	0.356666666666667	-0.0787698638159782	-1.61700190766715
108	0.36	-0.0761932607274503	-1.61829020921141
109	0.363333333333333	-0.0800581653602421	-1.61700190766715
110	0.366666666666667	-0.0813464669045061	-1.61442530457862
111	0.37	-0.0761932607274503	-1.61313700303435
112	0.373333333333333	-0.08263476844877	-1.61313700303435
113	0.376666666666667	-0.0761932607274503	-1.61700190766715
114	0.38	-0.08263476844877	-1.61829020921141
115	0.383333333333333	-0.083923069993034	-1.61700190766715
116	0.386666666666667	-0.0723283560946584	-1.61313700303435
117	0.39	-0.083923069993034	-1.61313700303435
118	0.393333333333333	-0.0787698638159782	-1.61313700303435
119	0.396666666666667	-0.083923069993034	-1.61571360612288
120	0.4	-0.083923069993034	-1.61700190766715
121	0.403333333333333	-0.0774815622717142	-1.61571360612288
122	0.406666666666667	-0.083923069993034	-1.61184870149009
123	0.41	-0.0813464669045061	-1.61184870149009
124	0.413333333333333	-0.08263476844877	-1.61184870149009
125	0.416666666666667	-0.08263476844877	-1.61571360612288
126	0.42	-0.0877879746258259	-1.61571360612288
127	0.423333333333333	-0.0877879746258259	-1.61571360612288
128	0.426666666666667	-0.08263476844877	-1.61056039994583
129	0.43	-0.08263476844877	-1.61056039994583
130	0.433333333333333	-0.083923069993034	-1.61056039994583
131	0.436666666666667	-0.0864996730815619	-1.61442530457862
132	0.44	-0.0864996730815619	-1.61442530457862
133	0.443333333333333	-0.0864996730815619	-1.61442530457862
134	0.446666666666667	-0.0877879746258259	-1.61056039994583
135	0.45	-0.0890762761700898	-1.61056039994583
136	0.453333333333333	-0.08263476844877	-1.60927209840156
137	0.456666666666667	-0.0877879746258259	-1.61313700303435
138	0.46	-0.0877879746258259	-1.61313700303435
139	0.463333333333333	-0.0903645777143538	-1.61313700303435
140	0.466666666666667	-0.0890762761700898	-1.60927209840156
141	0.47	-0.083923069993034	-1.60927209840156
142	0.473333333333333	-0.085211371537298	-1.60927209840156
143	0.476666666666667	-0.0942294823471457	-1.61184870149009
144	0.48	-0.0890762761700898	-1.61184870149009
145	0.483333333333333	-0.0929411808028817	-1.61184870149009
146	0.486666666666667	-0.0903645777143538	-1.6079837968573
147	0.49	-0.0903645777143538	-1.60669549531303
148	0.493333333333333	-0.0916528792586178	-1.60669549531303
149	0.496666666666667	-0.0916528792586178	-1.61056039994583
150	0.5	-0.0955177838914096	-1.61056039994583
151	0.503333333333333	-0.0890762761700898	-1.60927209840156
152	0.506666666666667	-0.0903645777143538	-1.60669549531303
153	0.51	-0.0955177838914096	-1.60540719376877
154	0.513333333333333	-0.0942294823471457	-1.60540719376877
155	0.516666666666667	-0.0955177838914096	-1.60927209840156
156	0.52	-0.0942294823471457	-1.60927209840156
157	0.523333333333333	-0.0955177838914096	-1.6079837968573
158	0.526666666666667	-0.0955177838914096	-1.60540719376877
159	0.53	-0.0877879746258259	-1.60411889222451
160	0.533333333333333	-0.0929411808028817	-1.60540719376877
161	0.536666666666667	-0.0955177838914096	-1.6079837968573
162	0.54	-0.101959291612729	-1.6079837968573
163	0.543333333333333	-0.0955177838914096	-1.6079837968573
164	0.546666666666667	-0.0968060854356736	-1.60411889222451
165	0.55	-0.0916528792586178	-1.60283059068024
166	0.553333333333333	-0.0993826885242015	-1.60283059068024
167	0.556666666666667	-0.100670990068465	-1.60669549531303
168	0.56	-0.101959291612729	-1.60669549531303
169	0.563333333333333	-0.103247593156993	-1.60669549531303
170	0.566666666666667	-0.0968060854356736	-1.60283059068024
171	0.57	-0.0980943869799376	-1.60283059068024
172	0.573333333333333	-0.101959291612729	-1.60283059068024
173	0.576666666666667	-0.0993826885242015	-1.60540719376877
174	0.58	-0.101959291612729	-1.60669549531303
175	0.583333333333333	-0.101959291612729	-1.60669549531303
176	0.586666666666667	-0.100670990068465	-1.60154228913598
177	0.59	-0.0980943869799376	-1.60154228913598
178	0.593333333333333	-0.0980943869799376	-1.60154228913598
179	0.596666666666667	-0.100670990068465	-1.60411889222451
180	0.6	-0.103247593156993	-1.60411889222451
181	0.603333333333333	-0.105824196245521	-1.60411889222451
182	0.606666666666667	-0.101959291612729	-1.59896568604745
183	0.61	-0.0980943869799376	-1.59896568604745
184	0.613333333333333	-0.101959291612729	-1.59896568604745
185	0.616666666666667	-0.103247593156993	-1.60283059068024
186	0.62	-0.0993826885242015	-1.60411889222451
187	0.623333333333333	-0.108400799334049	-1.60283059068024
188	0.626666666666667	-0.107112497789785	-1.59896568604745
189	0.63	-0.108400799334049	-1.59767738450319
190	0.633333333333333	-0.108400799334049	-1.59767738450319
191	0.636666666666667	-0.108400799334049	-1.60154228913598
192	0.64	-0.118707211688161	-1.60154228913598
193	0.643333333333333	-0.112265703966841	-1.60154228913598
194	0.646666666666667	-0.114842307055369	-1.59767738450319
195	0.65	-0.109689100878313	-1.59638908295892
196	0.653333333333333	-0.109689100878313	-1.59767738450319
197	0.656666666666667	-0.117418910143897	-1.60025398759171
198	0.66	-0.112265703966841	-1.60025398759171
199	0.663333333333333	-0.116130608599633	-1.60025398759171
200	0.666666666666667	-0.117418910143897	-1.59638908295892
201	0.67	-0.107112497789785	-1.59638908295892
202	0.673333333333333	-0.112265703966841	-1.59638908295892
203	0.676666666666667	-0.110977402422577	-1.59896568604745
204	0.68	-0.109689100878313	-1.59896568604745
205	0.683333333333333	-0.110977402422577	-1.59896568604745
206	0.686666666666667	-0.110977402422577	-1.59510078141466
207	0.69	-0.114842307055369	-1.59381247987039
208	0.693333333333333	-0.112265703966841	-1.59510078141466
209	0.696666666666667	-0.116130608599633	-1.59767738450319
210	0.7	-0.118707211688161	-1.59767738450319
211	0.703333333333333	-0.113554005511105	-1.59767738450319
212	0.706666666666667	-0.119995513232425	-1.59381247987039
213	0.71	-0.117418910143897	-1.59252417832613
214	0.713333333333333	-0.114842307055369	-1.59381247987039
215	0.716666666666667	-0.119995513232425	-1.59638908295892
216	0.72	-0.114842307055369	-1.59638908295892
217	0.723333333333333	-0.114842307055369	-1.59638908295892
218	0.726666666666667	-0.118707211688161	-1.59252417832613
219	0.73	-0.117418910143897	-1.59123587678187
220	0.733333333333333	-0.118707211688161	-1.59123587678187
221	0.736666666666667	-0.117418910143897	-1.59510078141466
222	0.74	-0.122572116320953	-1.59510078141466
223	0.743333333333333	-0.119995513232425	-1.59510078141466
224	0.746666666666667	-0.117418910143897	-1.59123587678187
225	0.75	-0.118707211688161	-1.5899475752376
226	0.753333333333333	-0.114842307055369	-1.59123587678187
227	0.756666666666667	-0.121283814776689	-1.59252417832613
228	0.76	-0.121283814776689	-1.59381247987039
229	0.763333333333333	-0.122572116320953	-1.59252417832613
230	0.766666666666667	-0.122572116320953	-1.58865927369334
231	0.77	-0.122572116320953	-1.58865927369334
232	0.773333333333333	-0.118707211688161	-1.58865927369334
233	0.776666666666667	-0.118707211688161	-1.59123587678187
234	0.78	-0.116130608599633	-1.59123587678187
235	0.783333333333333	-0.114842307055369	-1.59123587678187
236	0.786666666666667	-0.119995513232425	-1.58737097214907
237	0.79	-0.122572116320953	-1.58608267060481
238	0.793333333333333	-0.122572116320953	-1.58608267060481
239	0.796666666666667	-0.127725322498009	-1.5899475752376
240	0.8	-0.123860417865217	-1.5899475752376
241	0.803333333333333	-0.130301925586537	-1.5899475752376
242	0.806666666666667	-0.127725322498009	-1.58608267060481
243	0.81	-0.122572116320953	-1.58479436906055
244	0.813333333333333	-0.126437020953745	-1.58479436906055
245	0.816666666666667	-0.123860417865217	-1.58737097214907
246	0.82	-0.1315902271308	-1.58865927369334
247	0.823333333333333	-0.132878528675064	-1.58865927369334
248	0.826666666666667	-0.127725322498009	-1.58350606751628
249	0.83	-0.127725322498009	-1.58350606751628
250	0.833333333333333	-0.126437020953745	-1.58350606751628
251	0.836666666666667	-0.130301925586537	-1.58737097214907
252	0.84	-0.1315902271308	-1.58737097214907
253	0.843333333333333	-0.127725322498009	-1.58737097214907
254	0.846666666666667	-0.130301925586537	-1.58221776597202
255	0.85	-0.126437020953745	-1.58092946442775
256	0.853333333333333	-0.1315902271308	-1.58350606751628
257	0.856666666666667	-0.132878528675064	-1.58608267060481
258	0.86	-0.129013624042273	-1.58608267060481
259	0.863333333333333	-0.136743433307856	-1.58608267060481
260	0.866666666666667	-0.136743433307856	-1.58092946442775
261	0.87	-0.125148719409481	-1.58092946442775
262	0.873333333333333	-0.139320036396384	-1.58092946442775
263	0.876666666666667	-0.127725322498009	-1.58479436906055
264	0.88	-0.13803173485212	-1.58479436906055
265	0.883333333333333	-0.132878528675064	-1.58350606751628
266	0.886666666666667	-0.134166830219328	-1.58092946442775
267	0.89	-0.129013624042273	-1.57964116288349
268	0.893333333333333	-0.125148719409481	-1.57964116288349
269	0.896666666666667	-0.135455131763592	-1.58350606751628
270	0.9	-0.134166830219328	-1.58350606751628
271	0.903333333333333	-0.132878528675064	-1.58221776597202
272	0.906666666666667	-0.132878528675064	-1.57964116288349
273	0.91	-0.130301925586537	-1.57835286133923
274	0.913333333333333	-0.129013624042273	-1.57835286133923
275	0.916666666666667	-0.127725322498009	-1.58221776597202
276	0.92	-0.125148719409481	-1.58221776597202
277	0.923333333333333	-0.130301925586537	-1.58221776597202
278	0.926666666666667	-0.127725322498009	-1.57706455979496
279	0.93	-0.126437020953745	-1.57706455979496
280	0.933333333333333	-0.132878528675064	-1.57706455979496
281	0.936666666666667	-0.127725322498009	-1.57964116288349
282	0.94	-0.132878528675064	-1.58092946442775
283	0.943333333333333	-0.129013624042273	-1.57964116288349
284	0.946666666666667	-0.127725322498009	-1.5757762582507
285	0.95	-0.126437020953745	-1.57448795670643
286	0.953333333333333	-0.125148719409481	-1.5757762582507
287	0.956666666666667	-0.132878528675064	-1.57835286133923
288	0.96	-0.129013624042273	-1.57964116288349
289	0.963333333333333	-0.126437020953745	-1.57835286133923
290	0.966666666666667	-0.134166830219328	-1.57448795670643
291	0.97	-0.118707211688161	-1.57319965516217
292	0.973333333333333	-0.125148719409481	-1.57448795670643
293	0.976666666666667	-0.1315902271308	-1.57706455979496
294	0.98	-0.130301925586537	-1.57706455979496
295	0.983333333333333	-0.127725322498009	-1.57706455979496
296	0.986666666666667	-0.129013624042273	-1.57319965516217
297	0.99	-0.123860417865217	-1.57191135361791
298	0.993333333333333	-0.127725322498009	-1.57191135361791
299	0.996666666666667	-0.126437020953745	-1.5757762582507
300	1	-0.130301925586537	-1.5757762582507
301	1.00333333333333	-0.127725322498009	-1.57448795670643
302	1.00666666666667	-0.122572116320953	-1.57062305207364
303	1.01	-0.121283814776689	-1.56933475052938
304	1.01333333333333	-0.114842307055369	-1.56933475052938
305	1.01666666666667	-0.123860417865217	-1.57319965516217
306	1.02	-0.119995513232425	-1.57319965516217
307	1.02333333333333	-0.121283814776689	-1.57319965516217
308	1.02666666666667	-0.122572116320953	-1.56933475052938
309	1.03	-0.113554005511105	-1.56804644898511
310	1.03333333333333	-0.114842307055369	-1.56804644898511
311	1.03666666666667	-0.122572116320953	-1.57062305207364
312	1.04	-0.116130608599633	-1.57062305207364
313	1.04333333333333	-0.117418910143897	-1.57062305207364
314	1.04666666666667	-0.116130608599633	-1.56675814744085
315	1.05	-0.117418910143897	-1.56675814744085
316	1.05333333333333	-0.116130608599633	-1.56675814744085
317	1.05666666666667	-0.118707211688161	-1.56933475052938
318	1.06	-0.122572116320953	-1.56933475052938
319	1.06333333333333	-0.118707211688161	-1.56933475052938
320	1.06666666666667	-0.117418910143897	-1.56546984589659
321	1.07	-0.112265703966841	-1.56418154435232
322	1.07333333333333	-0.112265703966841	-1.56418154435232
323	1.07666666666667	-0.116130608599633	-1.56675814744085
324	1.08	-0.119995513232425	-1.56804644898511
325	1.08333333333333	-0.117418910143897	-1.56804644898511
326	1.08666666666667	-0.112265703966841	-1.56418154435232
327	1.09	-0.118707211688161	-1.56289324280806
328	1.09333333333333	-0.112265703966841	-1.56289324280806
329	1.09666666666667	-0.121283814776689	-1.56546984589659
330	1.1	-0.112265703966841	-1.56675814744085
331	1.10333333333333	-0.116130608599633	-1.56675814744085
332	1.10666666666667	-0.117418910143897	-1.56160494126379
333	1.11	-0.109689100878313	-1.56160494126379
334	1.11333333333333	-0.110977402422577	-1.56160494126379
335	1.11666666666667	-0.112265703966841	-1.56418154435232
336	1.12	-0.113554005511105	-1.56418154435232
337	1.12333333333333	-0.113554005511105	-1.56418154435232
338	1.12666666666667	-0.112265703966841	-1.56031663971953
339	1.13	-0.109689100878313	-1.55902833817527
340	1.13333333333333	-0.112265703966841	-1.55902833817527
341	1.13666666666667	-0.112265703966841	-1.56289324280806
342	1.14	-0.117418910143897	-1.56289324280806
343	1.14333333333333	-0.109689100878313	-1.56160494126379
344	1.14666666666667	-0.112265703966841	-1.557740036631
345	1.15	-0.110977402422577	-1.557740036631
346	1.15333333333333	-0.108400799334049	-1.55902833817527
347	1.15666666666667	-0.110977402422577	-1.56160494126379
348	1.16	-0.107112497789785	-1.56160494126379
349	1.16333333333333	-0.109689100878313	-1.56160494126379
350	1.16666666666667	-0.105824196245521	-1.55645173508674
351	1.17	-0.101959291612729	-1.55645173508674
352	1.17333333333333	-0.104535894701257	-1.55645173508674
353	1.17666666666667	-0.100670990068465	-1.55902833817527
354	1.18	-0.108400799334049	-1.56031663971953
355	1.18333333333333	-0.104535894701257	-1.56031663971953
356	1.18666666666667	-0.101959291612729	-1.55516343354248
357	1.19	-0.105824196245521	-1.55516343354248
358	1.19333333333333	-0.0993826885242015	-1.55516343354248
359	1.19666666666667	-0.0993826885242015	-1.557740036631
360	1.2	-0.101959291612729	-1.55902833817527
361	1.20333333333333	-0.0993826885242015	-1.557740036631
362	1.20666666666667	-0.0968060854356736	-1.55387513199821
