Number of measurement points: 13933
Sample Rate (Hz): 300
Low limit Ch0 (V): -10
Upper limit Ch0 (V): 10
Low limit Ch1 (V): -10
Upper limit Ch1 (V): 10

Index	Time[s]	Ch0[V]	Ch1[V]
0	0	-0.156067956471816	-1.61957851075567
1	0.00333333333333333	-0.0581570391077548	-1.61442530457862
2	0.00666666666666667	-0.0542921344749629	-1.61442530457862
3	0.01	-0.0620219437405467	-1.61442530457862
4	0.0133333333333333	-0.0594453406520188	-1.61957851075567
5	0.0166666666666667	-0.0607336421962827	-1.61957851075567
6	0.02	-0.0645985468290746	-1.61957851075567
7	0.0233333333333333	-0.0568687375634909	-1.61442530457862
8	0.0266666666666667	-0.0581570391077548	-1.61442530457862
9	0.03	-0.0633102452848107	-1.61571360612288
10	0.0333333333333333	-0.0581570391077548	-1.61829020921141
11	0.0366666666666667	-0.0633102452848107	-1.61957851075567
12	0.04	-0.0594453406520188	-1.61957851075567
13	0.0433333333333333	-0.0581570391077548	-1.61442530457862
14	0.0466666666666667	-0.0542921344749629	-1.61442530457862
15	0.05	-0.0607336421962827	-1.61442530457862
16	0.0533333333333333	-0.0581570391077548	-1.61957851075567
17	0.0566666666666667	-0.0620219437405467	-1.61957851075567
18	0.06	-0.0607336421962827	-1.61957851075567
19	0.0633333333333333	-0.0542921344749629	-1.61442530457862
20	0.0666666666666667	-0.0607336421962827	-1.61442530457862
21	0.07	-0.0542921344749629	-1.61571360612288
22	0.0733333333333333	-0.0542921344749629	-1.61957851075567
23	0.0766666666666667	-0.0671751499176025	-1.61957851075567
24	0.08	-0.0581570391077548	-1.61957851075567
25	0.0833333333333333	-0.0581570391077548	-1.61442530457862
26	0.0866666666666667	-0.0568687375634909	-1.61442530457862
27	0.09	-0.0594453406520188	-1.61442530457862
28	0.0933333333333333	-0.0607336421962827	-1.61957851075567
29	0.0966666666666667	-0.0594453406520188	-1.61957851075567
30	0.1	-0.0594453406520188	-1.61829020921141
31	0.103333333333333	-0.0555804360192269	-1.61442530457862
32	0.106666666666667	-0.0607336421962827	-1.61442530457862
33	0.11	-0.0607336421962827	-1.61571360612288
34	0.113333333333333	-0.0581570391077548	-1.61957851075567
35	0.116666666666667	-0.0633102452848107	-1.61957851075567
36	0.12	-0.0607336421962827	-1.61957851075567
37	0.123333333333333	-0.0594453406520188	-1.61442530457862
38	0.126666666666667	-0.0581570391077548	-1.61442530457862
39	0.13	-0.0581570391077548	-1.61571360612288
40	0.133333333333333	-0.0568687375634909	-1.61957851075567
41	0.136666666666667	-0.0594453406520188	-1.61957851075567
42	0.14	-0.0581570391077548	-1.61957851075567
43	0.143333333333333	-0.0594453406520188	-1.61442530457862
44	0.146666666666667	-0.0568687375634909	-1.61442530457862
45	0.15	-0.0555804360192269	-1.61442530457862
46	0.153333333333333	-0.0594453406520188	-1.61829020921141
47	0.156666666666667	-0.0581570391077548	-1.61957851075567
48	0.16	-0.0581570391077548	-1.61829020921141
49	0.163333333333333	-0.0581570391077548	-1.61442530457862
50	0.166666666666667	-0.0568687375634909	-1.61442530457862
51	0.17	-0.0542921344749629	-1.61442530457862
52	0.173333333333333	-0.0607336421962827	-1.61957851075567
53	0.176666666666667	-0.0658868483733386	-1.61957851075567
54	0.18	-0.0568687375634909	-1.61829020921141
55	0.183333333333333	-0.0620219437405467	-1.61442530457862
56	0.186666666666667	-0.0607336421962827	-1.61442530457862
57	0.19	-0.0542921344749629	-1.61442530457862
58	0.193333333333333	-0.0620219437405467	-1.61957851075567
59	0.196666666666667	-0.0581570391077548	-1.61957851075567
60	0.2	-0.0633102452848107	-1.61829020921141
61	0.203333333333333	-0.0607336421962827	-1.61571360612288
62	0.206666666666667	-0.0633102452848107	-1.61442530457862
63	0.21	-0.0633102452848107	-1.61571360612288
64	0.213333333333333	-0.0645985468290746	-1.61829020921141
65	0.216666666666667	-0.0633102452848107	-1.61957851075567
66	0.22	-0.0568687375634909	-1.61829020921141
67	0.223333333333333	-0.0607336421962827	-1.61442530457862
68	0.226666666666667	-0.0581570391077548	-1.61442530457862
69	0.23	-0.0568687375634909	-1.61442530457862
70	0.233333333333333	-0.0607336421962827	-1.61957851075567
71	0.236666666666667	-0.0607336421962827	-1.61957851075567
72	0.24	-0.0581570391077548	-1.61957851075567
73	0.243333333333333	-0.0620219437405467	-1.61442530457862
74	0.246666666666667	-0.0555804360192269	-1.61442530457862
75	0.25	-0.0594453406520188	-1.61442530457862
76	0.253333333333333	-0.0645985468290746	-1.61957851075567
77	0.256666666666667	-0.0568687375634909	-1.61829020921141
78	0.26	-0.0620219437405467	-1.61829020921141
79	0.263333333333333	-0.0633102452848107	-1.61442530457862
80	0.266666666666667	-0.0581570391077548	-1.61442530457862
81	0.27	-0.0581570391077548	-1.61571360612288
82	0.273333333333333	-0.0594453406520188	-1.61957851075567
83	0.276666666666667	-0.0594453406520188	-1.61957851075567
84	0.28	-0.0594453406520188	-1.61829020921141
85	0.283333333333333	-0.0633102452848107	-1.61442530457862
86	0.286666666666667	-0.0620219437405467	-1.61442530457862
87	0.29	-0.0594453406520188	-1.61571360612288
88	0.293333333333333	-0.0633102452848107	-1.61829020921141
89	0.296666666666667	-0.0620219437405467	-1.61957851075567
90	0.3	-0.0607336421962827	-1.61957851075567
91	0.303333333333333	-0.0607336421962827	-1.61442530457862
92	0.306666666666667	-0.0542921344749629	-1.61442530457862
93	0.31	-0.0581570391077548	-1.61442530457862
94	0.313333333333333	-0.0594453406520188	-1.61957851075567
95	0.316666666666667	-0.0594453406520188	-1.61957851075567
96	0.32	-0.0620219437405467	-1.61829020921141
97	0.323333333333333	-0.0568687375634909	-1.61442530457862
98	0.326666666666667	-0.0594453406520188	-1.61442530457862
99	0.33	-0.0620219437405467	-1.61571360612288
100	0.333333333333333	-0.0607336421962827	-1.61829020921141
101	0.336666666666667	-0.0607336421962827	-1.61957851075567
102	0.34	-0.0607336421962827	-1.61957851075567
103	0.343333333333333	-0.0568687375634909	-1.61442530457862
104	0.346666666666667	-0.0568687375634909	-1.61442530457862
105	0.35	-0.0620219437405467	-1.61442530457862
106	0.353333333333333	-0.0620219437405467	-1.61957851075567
107	0.356666666666667	-0.0620219437405467	-1.61957851075567
108	0.36	-0.0658868483733386	-1.61829020921141
109	0.363333333333333	-0.0607336421962827	-1.61442530457862
110	0.366666666666667	-0.0555804360192269	-1.61442530457862
111	0.37	-0.0620219437405467	-1.61442530457862
112	0.373333333333333	-0.0633102452848107	-1.61957851075567
113	0.376666666666667	-0.0542921344749629	-1.61957851075567
114	0.38	-0.0633102452848107	-1.61829020921141
115	0.383333333333333	-0.0555804360192269	-1.61442530457862
116	0.386666666666667	-0.0607336421962827	-1.61442530457862
117	0.39	-0.0607336421962827	-1.61442530457862
118	0.393333333333333	-0.0581570391077548	-1.61957851075567
119	0.396666666666667	-0.0594453406520188	-1.61957851075567
120	0.4	-0.0607336421962827	-1.61957851075567
121	0.403333333333333	-0.0594453406520188	-1.61442530457862
122	0.406666666666667	-0.0594453406520188	-1.61442530457862
123	0.41	-0.0607336421962827	-1.61571360612288
124	0.413333333333333	-0.0568687375634909	-1.61957851075567
125	0.416666666666667	-0.0645985468290746	-1.61829020921141
126	0.42	-0.0607336421962827	-1.61957851075567
127	0.423333333333333	-0.0581570391077548	-1.61442530457862
128	0.426666666666667	-0.0581570391077548	-1.61442530457862
129	0.43	-0.0594453406520188	-1.61571360612288
130	0.433333333333333	-0.0581570391077548	-1.61957851075567
131	0.436666666666667	-0.0607336421962827	-1.61957851075567
132	0.44	-0.0568687375634909	-1.61829020921141
133	0.443333333333333	-0.0568687375634909	-1.61442530457862
134	0.446666666666667	-0.0607336421962827	-1.61442530457862
135	0.45	-0.0555804360192269	-1.61571360612288
136	0.453333333333333	-0.0607336421962827	-1.61829020921141
137	0.456666666666667	-0.0581570391077548	-1.61957851075567
138	0.46	-0.0568687375634909	-1.61829020921141
139	0.463333333333333	-0.0594453406520188	-1.61442530457862
140	0.466666666666667	-0.0581570391077548	-1.61442530457862
141	0.47	-0.0568687375634909	-1.61571360612288
142	0.473333333333333	-0.0581570391077548	-1.61957851075567
143	0.476666666666667	-0.0607336421962827	-1.61957851075567
144	0.48	-0.0581570391077548	-1.61829020921141
145	0.483333333333333	-0.0620219437405467	-1.61442530457862
146	0.486666666666667	-0.0581570391077548	-1.61442530457862
147	0.49	-0.0555804360192269	-1.61571360612288
148	0.493333333333333	-0.0607336421962827	-1.61957851075567
149	0.496666666666667	-0.0594453406520188	-1.61957851075567
150	0.5	-0.0594453406520188	-1.61957851075567
151	0.503333333333333	-0.0620219437405467	-1.61442530457862
152	0.506666666666667	-0.0581570391077548	-1.61442530457862
153	0.51	-0.0568687375634909	-1.61442530457862
154	0.513333333333333	-0.0633102452848107	-1.61829020921141
155	0.516666666666667	-0.0568687375634909	-1.61957851075567
156	0.52	-0.0568687375634909	-1.61957851075567
157	0.523333333333333	-0.0594453406520188	-1.61442530457862
158	0.526666666666667	-0.053003832930699	-1.61442530457862
159	0.53	-0.0581570391077548	-1.61442530457862
160	0.533333333333333	-0.0620219437405467	-1.61957851075567
161	0.536666666666667	-0.0645985468290746	-1.61829020921141
162	0.54	-0.0594453406520188	-1.61829020921141
163	0.543333333333333	-0.0645985468290746	-1.61442530457862
164	0.546666666666667	-0.0568687375634909	-1.61442530457862
165	0.55	-0.0620219437405467	-1.61442530457862
166	0.553333333333333	-0.0633102452848107	-1.61829020921141
167	0.556666666666667	-0.0620219437405467	-1.61957851075567
168	0.56	-0.0633102452848107	-1.61829020921141
169	0.563333333333333	-0.0568687375634909	-1.61571360612288
170	0.566666666666667	-0.0594453406520188	-1.61442530457862
171	0.57	-0.0620219437405467	-1.61571360612288
172	0.573333333333333	-0.0594453406520188	-1.61957851075567
173	0.576666666666667	-0.0581570391077548	-1.61957851075567
174	0.58	-0.0645985468290746	-1.61829020921141
175	0.583333333333333	-0.0594453406520188	-1.61442530457862
176	0.586666666666667	-0.0555804360192269	-1.61442530457862
177	0.59	-0.0594453406520188	-1.61571360612288
178	0.593333333333333	-0.0568687375634909	-1.61957851075567
179	0.596666666666667	-0.0594453406520188	-1.61957851075567
180	0.6	-0.0581570391077548	-1.61829020921141
181	0.603333333333333	-0.0607336421962827	-1.61442530457862
182	0.606666666666667	-0.0568687375634909	-1.61442530457862
183	0.61	-0.0581570391077548	-1.61571360612288
184	0.613333333333333	-0.0542921344749629	-1.61957851075567
185	0.616666666666667	-0.0620219437405467	-1.61957851075567
186	0.62	-0.0594453406520188	-1.61829020921141
187	0.623333333333333	-0.0555804360192269	-1.61442530457862
188	0.626666666666667	-0.0607336421962827	-1.61571360612288
189	0.63	-0.0633102452848107	-1.61442530457862
190	0.633333333333333	-0.0594453406520188	-1.61957851075567
191	0.636666666666667	-0.0645985468290746	-1.61957851075567
192	0.64	-0.0620219437405467	-1.61829020921141
193	0.643333333333333	-0.0555804360192269	-1.61442530457862
194	0.646666666666667	-0.0620219437405467	-1.61442530457862
195	0.65	-0.0620219437405467	-1.61442530457862
196	0.653333333333333	-0.0607336421962827	-1.61829020921141
197	0.656666666666667	-0.0620219437405467	-1.61957851075567
198	0.66	-0.0633102452848107	-1.61829020921141
199	0.663333333333333	-0.0568687375634909	-1.61442530457862
200	0.666666666666667	-0.0581570391077548	-1.61442530457862
201	0.67	-0.0594453406520188	-1.61571360612288
202	0.673333333333333	-0.0658868483733386	-1.61829020921141
203	0.676666666666667	-0.0607336421962827	-1.61957851075567
204	0.68	-0.0594453406520188	-1.61829020921141
205	0.683333333333333	-0.0633102452848107	-1.61442530457862
206	0.686666666666667	-0.0607336421962827	-1.61442530457862
207	0.69	-0.0555804360192269	-1.61571360612288
208	0.693333333333333	-0.0594453406520188	-1.61829020921141
209	0.696666666666667	-0.0594453406520188	-1.61957851075567
210	0.7	-0.0607336421962827	-1.61829020921141
211	0.703333333333333	-0.0658868483733386	-1.61442530457862
212	0.706666666666667	-0.0568687375634909	-1.61442530457862
213	0.71	-0.0607336421962827	-1.61571360612288
214	0.713333333333333	-0.0620219437405467	-1.61829020921141
215	0.716666666666667	-0.0620219437405467	-1.61957851075567
216	0.72	-0.0594453406520188	-1.61829020921141
217	0.723333333333333	-0.0620219437405467	-1.61442530457862
218	0.726666666666667	-0.0568687375634909	-1.61442530457862
219	0.73	-0.0607336421962827	-1.61442530457862
220	0.733333333333333	-0.0620219437405467	-1.61829020921141
221	0.736666666666667	-0.0607336421962827	-1.61957851075567
222	0.74	-0.0568687375634909	-1.61829020921141
223	0.743333333333333	-0.0568687375634909	-1.61442530457862
224	0.746666666666667	-0.0581570391077548	-1.61442530457862
225	0.75	-0.0581570391077548	-1.61442530457862
226	0.753333333333333	-0.0607336421962827	-1.61957851075567
227	0.756666666666667	-0.0607336421962827	-1.61957851075567
228	0.76	-0.0594453406520188	-1.61829020921141
229	0.763333333333333	-0.0581570391077548	-1.61313700303435
230	0.766666666666667	-0.0581570391077548	-1.61313700303435
231	0.77	-0.0594453406520188	-1.61442530457862
232	0.773333333333333	-0.0620219437405467	-1.61829020921141
233	0.776666666666667	-0.0568687375634909	-1.61829020921141
234	0.78	-0.0633102452848107	-1.61829020921141
235	0.783333333333333	-0.0555804360192269	-1.61442530457862
236	0.786666666666667	-0.053003832930699	-1.61313700303435
237	0.79	-0.0568687375634909	-1.61442530457862
238	0.793333333333333	-0.0620219437405467	-1.61829020921141
239	0.796666666666667	-0.0568687375634909	-1.61829020921141
240	0.8	-0.0581570391077548	-1.61700190766715
241	0.803333333333333	-0.0555804360192269	-1.61313700303435
242	0.806666666666667	-0.0542921344749629	-1.61313700303435
243	0.81	-0.0555804360192269	-1.61442530457862
244	0.813333333333333	-0.0555804360192269	-1.61829020921141
245	0.816666666666667	-0.0594453406520188	-1.61700190766715
246	0.82	-0.0581570391077548	-1.61700190766715
247	0.823333333333333	-0.0542921344749629	-1.61313700303435
248	0.826666666666667	-0.053003832930699	-1.61313700303435
249	0.83	-0.0594453406520188	-1.61313700303435
250	0.833333333333333	-0.0607336421962827	-1.61700190766715
251	0.836666666666667	-0.0620219437405467	-1.61700190766715
252	0.84	-0.0607336421962827	-1.61571360612288
253	0.843333333333333	-0.0542921344749629	-1.61184870149009
254	0.846666666666667	-0.0607336421962827	-1.61184870149009
255	0.85	-0.0620219437405467	-1.61184870149009
256	0.853333333333333	-0.0594453406520188	-1.61571360612288
257	0.856666666666667	-0.0645985468290746	-1.61571360612288
258	0.86	-0.0581570391077548	-1.61571360612288
259	0.863333333333333	-0.0607336421962827	-1.61056039994583
260	0.866666666666667	-0.0607336421962827	-1.61056039994583
261	0.87	-0.0607336421962827	-1.61184870149009
262	0.873333333333333	-0.0568687375634909	-1.61442530457862
263	0.876666666666667	-0.0633102452848107	-1.61442530457862
264	0.88	-0.0607336421962827	-1.61442530457862
265	0.883333333333333	-0.0542921344749629	-1.61056039994583
266	0.886666666666667	-0.0555804360192269	-1.60927209840156
267	0.89	-0.051715531386435	-1.60927209840156
268	0.893333333333333	-0.0568687375634909	-1.61442530457862
269	0.896666666666667	-0.0620219437405467	-1.61442530457862
270	0.9	-0.051715531386435	-1.61313700303435
271	0.903333333333333	-0.0555804360192269	-1.6079837968573
272	0.906666666666667	-0.0542921344749629	-1.6079837968573
273	0.91	-0.0568687375634909	-1.6079837968573
274	0.913333333333333	-0.0581570391077548	-1.61184870149009
275	0.916666666666667	-0.0607336421962827	-1.61313700303435
276	0.92	-0.0568687375634909	-1.61056039994583
277	0.923333333333333	-0.0581570391077548	-1.60669549531303
278	0.926666666666667	-0.0542921344749629	-1.60669549531303
279	0.93	-0.0542921344749629	-1.6079837968573
280	0.933333333333333	-0.0620219437405467	-1.61184870149009
281	0.936666666666667	-0.0620219437405467	-1.61184870149009
282	0.94	-0.051715531386435	-1.61056039994583
283	0.943333333333333	-0.0555804360192269	-1.60540719376877
284	0.946666666666667	-0.0555804360192269	-1.60669549531303
285	0.95	-0.0504272298421711	-1.60669549531303
286	0.953333333333333	-0.0594453406520188	-1.61056039994583
287	0.956666666666667	-0.0581570391077548	-1.61056039994583
288	0.96	-0.053003832930699	-1.60927209840156
289	0.963333333333333	-0.0581570391077548	-1.60540719376877
290	0.966666666666667	-0.0555804360192269	-1.60411889222451
291	0.97	-0.051715531386435	-1.60540719376877
292	0.973333333333333	-0.0607336421962827	-1.60927209840156
293	0.976666666666667	-0.0555804360192269	-1.60927209840156
294	0.98	-0.0581570391077548	-1.6079837968573
295	0.983333333333333	-0.0581570391077548	-1.60411889222451
296	0.986666666666667	-0.0491389282979071	-1.60411889222451
297	0.99	-0.0542921344749629	-1.60540719376877
298	0.993333333333333	-0.0568687375634909	-1.6079837968573
299	0.996666666666667	-0.051715531386435	-1.6079837968573
300	1	-0.0504272298421711	-1.60669549531303
301	1.00333333333333	-0.0555804360192269	-1.60283059068024
302	1.00666666666667	-0.0504272298421711	-1.60154228913598
303	1.01	-0.0542921344749629	-1.60411889222451
304	1.01333333333333	-0.0555804360192269	-1.6079837968573
305	1.01666666666667	-0.0555804360192269	-1.60669549531303
306	1.02	-0.0555804360192269	-1.60669549531303
307	1.02333333333333	-0.051715531386435	-1.60283059068024
308	1.02666666666667	-0.0478506267536432	-1.60154228913598
309	1.03	-0.053003832930699	-1.60283059068024
310	1.03333333333333	-0.0465623252093792	-1.60669549531303
311	1.03666666666667	-0.053003832930699	-1.60540719376877
312	1.04	-0.0594453406520188	-1.60540719376877
313	1.04333333333333	-0.051715531386435	-1.60154228913598
314	1.04666666666667	-0.0504272298421711	-1.60025398759171
315	1.05	-0.0581570391077548	-1.60154228913598
316	1.05333333333333	-0.0504272298421711	-1.60540719376877
317	1.05666666666667	-0.0542921344749629	-1.60540719376877
318	1.06	-0.0555804360192269	-1.60411889222451
319	1.06333333333333	-0.0491389282979071	-1.59896568604745
320	1.06666666666667	-0.053003832930699	-1.60025398759171
321	1.07	-0.051715531386435	-1.60025398759171
322	1.07333333333333	-0.0452740236651152	-1.60411889222451
323	1.07666666666667	-0.0568687375634909	-1.60411889222451
324	1.08	-0.0542921344749629	-1.60283059068024
325	1.08333333333333	-0.0478506267536432	-1.59896568604745
326	1.08666666666667	-0.053003832930699	-1.59896568604745
327	1.09	-0.0504272298421711	-1.60025398759171
328	1.09333333333333	-0.051715531386435	-1.60283059068024
329	1.09666666666667	-0.0555804360192269	-1.60283059068024
330	1.1	-0.0542921344749629	-1.60283059068024
331	1.10333333333333	-0.0491389282979071	-1.59767738450319
332	1.10666666666667	-0.0491389282979071	-1.59767738450319
333	1.11	-0.053003832930699	-1.59896568604745
334	1.11333333333333	-0.0594453406520188	-1.60154228913598
335	1.11666666666667	-0.0555804360192269	-1.60283059068024
336	1.12	-0.0555804360192269	-1.60154228913598
337	1.12333333333333	-0.053003832930699	-1.59767738450319
338	1.12666666666667	-0.053003832930699	-1.59767738450319
339	1.13	-0.051715531386435	-1.59767738450319
340	1.13333333333333	-0.0581570391077548	-1.60154228913598
341	1.13666666666667	-0.0594453406520188	-1.60154228913598
342	1.14	-0.0555804360192269	-1.60025398759171
343	1.14333333333333	-0.0542921344749629	-1.59638908295892
344	1.14666666666667	-0.0504272298421711	-1.59638908295892
345	1.15	-0.0555804360192269	-1.59638908295892
346	1.15333333333333	-0.0568687375634909	-1.60025398759171
347	1.15666666666667	-0.0607336421962827	-1.60025398759171
348	1.16	-0.053003832930699	-1.60025398759171
349	1.16333333333333	-0.0555804360192269	-1.59510078141466
350	1.16666666666667	-0.053003832930699	-1.59510078141466
351	1.17	-0.051715531386435	-1.59510078141466
352	1.17333333333333	-0.0620219437405467	-1.59896568604745
353	1.17666666666667	-0.053003832930699	-1.59896568604745
354	1.18	-0.0581570391077548	-1.59767738450319
355	1.18333333333333	-0.0568687375634909	-1.59381247987039
356	1.18666666666667	-0.0504272298421711	-1.59381247987039
357	1.19	-0.0478506267536432	-1.59510078141466
358	1.19333333333333	-0.0504272298421711	-1.59896568604745
