Number of measurement points: 42922
Sample Rate (Hz): 500
Low limit Ch0 (V): -10
Upper limit Ch0 (V): 10
Low limit Ch1 (V): -10
Upper limit Ch1 (V): 10

Index	Time[s]	Ch0[V]	Ch1[V]
0	0	-0.0581570391077548	-1.63246152619831
1	0.002	-0.0645985468290746	-1.63246152619831
2	0.004	-0.0671751499176025	-1.63117322465405
3	0.006	-0.0633102452848107	-1.63117322465405
4	0.008	-0.0645985468290746	-1.62859662156552
5	0.01	-0.0607336421962827	-1.62730832002126
6	0.012	-0.0607336421962827	-1.62730832002126
7	0.014	-0.0555804360192269	-1.62730832002126
8	0.016	-0.0581570391077548	-1.62859662156552
9	0.018	-0.0658868483733386	-1.62988492310978
10	0.02	-0.0658868483733386	-1.63246152619831
11	0.022	-0.0671751499176025	-1.63246152619831
12	0.024	-0.0633102452848107	-1.63246152619831
13	0.026	-0.0594453406520188	-1.63117322465405
14	0.028	-0.0633102452848107	-1.62859662156552
15	0.03	-0.0607336421962827	-1.62730832002126
16	0.032	-0.0633102452848107	-1.62730832002126
17	0.034	-0.0594453406520188	-1.62730832002126
18	0.036	-0.0607336421962827	-1.62859662156552
19	0.038	-0.0658868483733386	-1.63117322465405
20	0.04	-0.0594453406520188	-1.63246152619831
21	0.042	-0.0658868483733386	-1.63246152619831
22	0.044	-0.0620219437405467	-1.63117322465405
23	0.046	-0.0684634514618665	-1.63117322465405
24	0.048	-0.0594453406520188	-1.62859662156552
25	0.05	-0.0607336421962827	-1.62730832002126
26	0.052	-0.0581570391077548	-1.62730832002126
27	0.054	-0.0542921344749629	-1.62859662156552
28	0.056	-0.0620219437405467	-1.62859662156552
29	0.058	-0.0568687375634909	-1.62988492310978
30	0.06	-0.0607336421962827	-1.63246152619831
31	0.062	-0.0697517530061305	-1.63246152619831
32	0.064	-0.0697517530061305	-1.63246152619831
33	0.066	-0.0658868483733386	-1.63117322465405
34	0.068	-0.0607336421962827	-1.62859662156552
35	0.07	-0.0620219437405467	-1.62730832002126
36	0.072	-0.0594453406520188	-1.62730832002126
37	0.074	-0.0594453406520188	-1.62730832002126
38	0.076	-0.0594453406520188	-1.62730832002126
39	0.078	-0.0671751499176025	-1.63117322465405
40	0.08	-0.0633102452848107	-1.63246152619831
41	0.082	-0.0633102452848107	-1.63246152619831
42	0.084	-0.0658868483733386	-1.63246152619831
43	0.086	-0.0620219437405467	-1.63117322465405
44	0.088	-0.0645985468290746	-1.62859662156552
45	0.09	-0.0581570391077548	-1.62730832002126
46	0.092	-0.0568687375634909	-1.62730832002126
47	0.094	-0.0555804360192269	-1.62730832002126
48	0.096	-0.0684634514618665	-1.62859662156552
49	0.098	-0.0620219437405467	-1.62988492310978
50	0.1	-0.0684634514618665	-1.63246152619831
51	0.102	-0.0620219437405467	-1.63246152619831
52	0.104	-0.0568687375634909	-1.63246152619831
53	0.106	-0.0633102452848107	-1.63117322465405
54	0.108	-0.0620219437405467	-1.62859662156552
55	0.11	-0.0568687375634909	-1.62730832002126
56	0.112	-0.0645985468290746	-1.62730832002126
57	0.114	-0.0607336421962827	-1.62730832002126
58	0.116	-0.0633102452848107	-1.62730832002126
59	0.118	-0.0581570391077548	-1.62988492310978
60	0.12	-0.0620219437405467	-1.63117322465405
61	0.122	-0.0581570391077548	-1.63246152619831
62	0.124	-0.0633102452848107	-1.63246152619831
63	0.126	-0.0633102452848107	-1.63117322465405
64	0.128	-0.0620219437405467	-1.62859662156552
65	0.13	-0.0607336421962827	-1.62730832002126
66	0.132	-0.0542921344749629	-1.62730832002126
67	0.134	-0.0555804360192269	-1.62730832002126
68	0.136	-0.0581570391077548	-1.62730832002126
69	0.138	-0.0620219437405467	-1.63117322465405
70	0.14	-0.0633102452848107	-1.63246152619831
71	0.142	-0.0607336421962827	-1.63246152619831
72	0.144	-0.0658868483733386	-1.63246152619831
73	0.146	-0.0633102452848107	-1.63117322465405
74	0.148	-0.0620219437405467	-1.62859662156552
75	0.15	-0.0555804360192269	-1.62730832002126
76	0.152	-0.0568687375634909	-1.62730832002126
77	0.154	-0.0594453406520188	-1.62730832002126
78	0.156	-0.0581570391077548	-1.62730832002126
79	0.158	-0.0607336421962827	-1.62988492310978
80	0.16	-0.0568687375634909	-1.63246152619831
81	0.162	-0.0697517530061305	-1.63117322465405
82	0.164	-0.0633102452848107	-1.63246152619831
83	0.166	-0.0645985468290746	-1.63117322465405
84	0.168	-0.0581570391077548	-1.62859662156552
85	0.17	-0.0568687375634909	-1.62730832002126
86	0.172	-0.0594453406520188	-1.62730832002126
87	0.174	-0.0542921344749629	-1.62730832002126
88	0.176	-0.0658868483733386	-1.62730832002126
89	0.178	-0.0607336421962827	-1.63117322465405
90	0.18	-0.0633102452848107	-1.63246152619831
91	0.182	-0.0620219437405467	-1.63117322465405
92	0.184	-0.0607336421962827	-1.63246152619831
93	0.186	-0.0607336421962827	-1.63117322465405
94	0.188	-0.0594453406520188	-1.62859662156552
95	0.19	-0.0633102452848107	-1.62730832002126
96	0.192	-0.0594453406520188	-1.62730832002126
97	0.194	-0.0645985468290746	-1.62859662156552
98	0.196	-0.0620219437405467	-1.62859662156552
99	0.198	-0.0594453406520188	-1.62988492310978
100	0.2	-0.0658868483733386	-1.63246152619831
101	0.202	-0.0594453406520188	-1.63246152619831
102	0.204	-0.0594453406520188	-1.63117322465405
103	0.206	-0.0620219437405467	-1.63246152619831
104	0.208	-0.0671751499176025	-1.62859662156552
105	0.21	-0.0542921344749629	-1.62730832002126
106	0.212	-0.0645985468290746	-1.62730832002126
107	0.214	-0.0594453406520188	-1.62730832002126
108	0.216	-0.0633102452848107	-1.62859662156552
109	0.218	-0.0633102452848107	-1.63117322465405
110	0.22	-0.0607336421962827	-1.63246152619831
111	0.222	-0.0607336421962827	-1.63246152619831
112	0.224	-0.0645985468290746	-1.63117322465405
113	0.226	-0.0620219437405467	-1.63117322465405
114	0.228	-0.0645985468290746	-1.62859662156552
115	0.23	-0.0607336421962827	-1.62730832002126
116	0.232	-0.0633102452848107	-1.62602001847699
117	0.234	-0.0542921344749629	-1.62730832002126
118	0.236	-0.0645985468290746	-1.62859662156552
119	0.238	-0.0607336421962827	-1.62988492310978
120	0.24	-0.0645985468290746	-1.63246152619831
121	0.242	-0.0581570391077548	-1.63117322465405
122	0.244	-0.0581570391077548	-1.63246152619831
123	0.246	-0.0671751499176025	-1.63117322465405
124	0.248	-0.0620219437405467	-1.62859662156552
125	0.25	-0.0620219437405467	-1.62730832002126
126	0.252	-0.0568687375634909	-1.62730832002126
127	0.254	-0.0645985468290746	-1.62859662156552
128	0.256	-0.0607336421962827	-1.62730832002126
129	0.258	-0.0607336421962827	-1.62988492310978
130	0.26	-0.0633102452848107	-1.63117322465405
131	0.262	-0.0671751499176025	-1.63117322465405
132	0.264	-0.0620219437405467	-1.63117322465405
133	0.266	-0.0620219437405467	-1.63117322465405
134	0.268	-0.0645985468290746	-1.62859662156552
135	0.27	-0.0607336421962827	-1.62730832002126
136	0.272	-0.0555804360192269	-1.62730832002126
137	0.274	-0.0620219437405467	-1.62730832002126
138	0.276	-0.0555804360192269	-1.62859662156552
139	0.278	-0.0620219437405467	-1.63117322465405
140	0.28	-0.0607336421962827	-1.63117322465405
141	0.282	-0.0645985468290746	-1.63246152619831
142	0.284	-0.0633102452848107	-1.63246152619831
143	0.286	-0.0645985468290746	-1.63117322465405
144	0.288	-0.0658868483733386	-1.62859662156552
145	0.29	-0.0581570391077548	-1.62730832002126
146	0.292	-0.0594453406520188	-1.62730832002126
147	0.294	-0.0581570391077548	-1.62730832002126
148	0.296	-0.0620219437405467	-1.62859662156552
149	0.298	-0.0607336421962827	-1.63117322465405
150	0.3	-0.0645985468290746	-1.63117322465405
151	0.302	-0.0645985468290746	-1.63246152619831
152	0.304	-0.0645985468290746	-1.63117322465405
153	0.306	-0.0645985468290746	-1.63117322465405
154	0.308	-0.0594453406520188	-1.62859662156552
155	0.31	-0.0594453406520188	-1.62730832002126
156	0.312	-0.0620219437405467	-1.62730832002126
157	0.314	-0.0633102452848107	-1.62730832002126
158	0.316	-0.0633102452848107	-1.62859662156552
159	0.318	-0.0594453406520188	-1.62988492310978
160	0.32	-0.0684634514618665	-1.63246152619831
161	0.322	-0.0581570391077548	-1.63246152619831
162	0.324	-0.0594453406520188	-1.63117322465405
163	0.326	-0.0581570391077548	-1.63117322465405
164	0.328	-0.0697517530061305	-1.62859662156552
165	0.33	-0.0568687375634909	-1.62730832002126
166	0.332	-0.0581570391077548	-1.62730832002126
167	0.334	-0.0594453406520188	-1.62730832002126
168	0.336	-0.0620219437405467	-1.62859662156552
169	0.338	-0.0620219437405467	-1.62988492310978
170	0.34	-0.0607336421962827	-1.63246152619831
171	0.342	-0.0594453406520188	-1.63117322465405
172	0.344	-0.0658868483733386	-1.63117322465405
173	0.346	-0.0620219437405467	-1.63117322465405
174	0.348	-0.0581570391077548	-1.62859662156552
175	0.35	-0.0568687375634909	-1.62730832002126
176	0.352	-0.0620219437405467	-1.62730832002126
177	0.354	-0.0568687375634909	-1.62730832002126
178	0.356	-0.0671751499176025	-1.62730832002126
179	0.358	-0.0633102452848107	-1.63117322465405
180	0.36	-0.0620219437405467	-1.63246152619831
181	0.362	-0.0645985468290746	-1.63246152619831
182	0.364	-0.0568687375634909	-1.63246152619831
183	0.366	-0.0645985468290746	-1.63117322465405
184	0.368	-0.0581570391077548	-1.62859662156552
185	0.37	-0.0581570391077548	-1.62730832002126
186	0.372	-0.0555804360192269	-1.62730832002126
187	0.374	-0.0607336421962827	-1.62730832002126
188	0.376	-0.0607336421962827	-1.62859662156552
189	0.378	-0.0607336421962827	-1.63117322465405
190	0.38	-0.0633102452848107	-1.63246152619831
191	0.382	-0.0594453406520188	-1.63246152619831
192	0.384	-0.0658868483733386	-1.63246152619831
193	0.386	-0.0594453406520188	-1.63117322465405
194	0.388	-0.0594453406520188	-1.62859662156552
195	0.39	-0.0581570391077548	-1.62730832002126
196	0.392	-0.0542921344749629	-1.62730832002126
197	0.394	-0.0620219437405467	-1.62730832002126
198	0.396	-0.0633102452848107	-1.62859662156552
199	0.398	-0.0633102452848107	-1.63117322465405
200	0.4	-0.0633102452848107	-1.63117322465405
201	0.402	-0.0645985468290746	-1.63246152619831
202	0.404	-0.0620219437405467	-1.63246152619831
203	0.406	-0.0633102452848107	-1.63117322465405
204	0.408	-0.0633102452848107	-1.62859662156552
205	0.41	-0.0555804360192269	-1.62730832002126
206	0.412	-0.0645985468290746	-1.62730832002126
207	0.414	-0.0594453406520188	-1.62730832002126
208	0.416	-0.0607336421962827	-1.62859662156552
209	0.418	-0.0633102452848107	-1.63117322465405
210	0.42	-0.0607336421962827	-1.63246152619831
211	0.422	-0.0633102452848107	-1.63246152619831
212	0.424	-0.0658868483733386	-1.63246152619831
213	0.426	-0.0658868483733386	-1.63117322465405
214	0.428	-0.0645985468290746	-1.62859662156552
215	0.43	-0.0594453406520188	-1.62730832002126
216	0.432	-0.0607336421962827	-1.62730832002126
217	0.434	-0.0594453406520188	-1.62859662156552
218	0.436	-0.0645985468290746	-1.62859662156552
219	0.438	-0.0594453406520188	-1.62988492310978
220	0.44	-0.0671751499176025	-1.63246152619831
221	0.442	-0.0607336421962827	-1.63246152619831
222	0.444	-0.0633102452848107	-1.63117322465405
223	0.446	-0.0620219437405467	-1.63117322465405
224	0.448	-0.0633102452848107	-1.62859662156552
225	0.45	-0.0633102452848107	-1.62730832002126
226	0.452	-0.0568687375634909	-1.62730832002126
227	0.454	-0.0633102452848107	-1.62730832002126
228	0.456	-0.0594453406520188	-1.62730832002126
229	0.458	-0.0620219437405467	-1.62988492310978
230	0.46	-0.0607336421962827	-1.63246152619831
231	0.462	-0.0633102452848107	-1.63246152619831
232	0.464	-0.0607336421962827	-1.63246152619831
233	0.466	-0.0594453406520188	-1.63117322465405
234	0.468	-0.0658868483733386	-1.62859662156552
235	0.47	-0.0581570391077548	-1.62730832002126
236	0.472	-0.0633102452848107	-1.62730832002126
237	0.474	-0.0620219437405467	-1.62730832002126
238	0.476	-0.0594453406520188	-1.62859662156552
239	0.478	-0.0658868483733386	-1.63117322465405
240	0.48	-0.0607336421962827	-1.63246152619831
241	0.482	-0.0645985468290746	-1.63246152619831
242	0.484	-0.0568687375634909	-1.63117322465405
243	0.486	-0.0645985468290746	-1.63117322465405
244	0.488	-0.0607336421962827	-1.62859662156552
245	0.49	-0.0568687375634909	-1.62730832002126
246	0.492	-0.0607336421962827	-1.62730832002126
247	0.494	-0.0594453406520188	-1.62859662156552
248	0.496	-0.0645985468290746	-1.62859662156552
249	0.498	-0.0607336421962827	-1.63117322465405
250	0.5	-0.0645985468290746	-1.63246152619831
251	0.502	-0.0607336421962827	-1.63246152619831
252	0.504	-0.0581570391077548	-1.63117322465405
253	0.506	-0.0645985468290746	-1.63117322465405
254	0.508	-0.0607336421962827	-1.62859662156552
255	0.51	-0.0594453406520188	-1.62730832002126
256	0.512	-0.0581570391077548	-1.62730832002126
257	0.514	-0.0607336421962827	-1.62730832002126
258	0.516	-0.0581570391077548	-1.62859662156552
259	0.518	-0.0645985468290746	-1.63117322465405
260	0.52	-0.0671751499176025	-1.63117322465405
261	0.522	-0.0633102452848107	-1.63246152619831
262	0.524	-0.0607336421962827	-1.63117322465405
263	0.526	-0.0594453406520188	-1.63117322465405
264	0.528	-0.0658868483733386	-1.62859662156552
265	0.53	-0.0568687375634909	-1.62730832002126
266	0.532	-0.0594453406520188	-1.62730832002126
267	0.534	-0.0594453406520188	-1.62730832002126
268	0.536	-0.0620219437405467	-1.62859662156552
269	0.538	-0.0607336421962827	-1.63117322465405
270	0.54	-0.0607336421962827	-1.63246152619831
271	0.542	-0.0581570391077548	-1.63246152619831
272	0.544	-0.0568687375634909	-1.63246152619831
273	0.546	-0.0658868483733386	-1.63117322465405
274	0.548	-0.0620219437405467	-1.62859662156552
275	0.55	-0.0581570391077548	-1.62730832002126
276	0.552	-0.0607336421962827	-1.62730832002126
277	0.554	-0.0594453406520188	-1.62730832002126
278	0.556	-0.0581570391077548	-1.62730832002126
279	0.558	-0.0633102452848107	-1.62988492310978
280	0.56	-0.0607336421962827	-1.63246152619831
281	0.562	-0.0658868483733386	-1.63246152619831
282	0.564	-0.0620219437405467	-1.63117322465405
283	0.566	-0.0684634514618665	-1.63117322465405
284	0.568	-0.0633102452848107	-1.62859662156552
285	0.57	-0.0607336421962827	-1.62730832002126
286	0.572	-0.0555804360192269	-1.62730832002126
287	0.574	-0.0620219437405467	-1.62730832002126
288	0.576	-0.0594453406520188	-1.62859662156552
289	0.578	-0.0658868483733386	-1.63117322465405
290	0.58	-0.0581570391077548	-1.63246152619831
291	0.582	-0.0607336421962827	-1.63246152619831
292	0.584	-0.0594453406520188	-1.63117322465405
293	0.586	-0.0620219437405467	-1.63117322465405
294	0.588	-0.0607336421962827	-1.62859662156552
295	0.59	-0.0620219437405467	-1.62730832002126
296	0.592	-0.0581570391077548	-1.62730832002126
297	0.594	-0.0594453406520188	-1.62730832002126
298	0.596	-0.0594453406520188	-1.62859662156552
299	0.598	-0.0633102452848107	-1.63117322465405
300	0.6	-0.0620219437405467	-1.63117322465405
301	0.602	-0.0645985468290746	-1.63117322465405
302	0.604	-0.0594453406520188	-1.63246152619831
303	0.606	-0.0645985468290746	-1.63117322465405
304	0.608	-0.0607336421962827	-1.62859662156552
305	0.61	-0.0568687375634909	-1.62730832002126
306	0.612	-0.0620219437405467	-1.62730832002126
307	0.614	-0.0620219437405467	-1.62859662156552
308	0.616	-0.0620219437405467	-1.62859662156552
309	0.618	-0.0607336421962827	-1.63117322465405
310	0.62	-0.0620219437405467	-1.63246152619831
311	0.622	-0.0658868483733386	-1.63246152619831
312	0.624	-0.0594453406520188	-1.63246152619831
313	0.626	-0.0620219437405467	-1.63117322465405
314	0.628	-0.0581570391077548	-1.62859662156552
315	0.63	-0.0594453406520188	-1.62730832002126
316	0.632	-0.0542921344749629	-1.62730832002126
317	0.634	-0.0568687375634909	-1.62730832002126
318	0.636	-0.0568687375634909	-1.62859662156552
319	0.638	-0.0542921344749629	-1.62988492310978
320	0.64	-0.0594453406520188	-1.63246152619831
321	0.642	-0.0581570391077548	-1.63117322465405
322	0.644	-0.0607336421962827	-1.63246152619831
323	0.646	-0.0607336421962827	-1.63117322465405
324	0.648	-0.0620219437405467	-1.62859662156552
325	0.65	-0.0620219437405467	-1.62730832002126
326	0.652	-0.0581570391077548	-1.62730832002126
327	0.654	-0.0607336421962827	-1.62730832002126
328	0.656	-0.0581570391077548	-1.62859662156552
329	0.658	-0.0594453406520188	-1.62988492310978
330	0.66	-0.0607336421962827	-1.63117322465405
331	0.662	-0.0645985468290746	-1.63246152619831
332	0.664	-0.0620219437405467	-1.63117322465405
333	0.666	-0.0581570391077548	-1.63117322465405
334	0.668	-0.0581570391077548	-1.62859662156552
335	0.67	-0.051715531386435	-1.62730832002126
336	0.672	-0.0581570391077548	-1.62730832002126
337	0.674	-0.0542921344749629	-1.62730832002126
338	0.676	-0.0568687375634909	-1.62730832002126
339	0.678	-0.0633102452848107	-1.63117322465405
340	0.68	-0.0555804360192269	-1.63246152619831
341	0.682	-0.0633102452848107	-1.63246152619831
342	0.684	-0.0594453406520188	-1.63246152619831
343	0.686	-0.0658868483733386	-1.63117322465405
344	0.688	-0.0633102452848107	-1.62859662156552
345	0.69	-0.0568687375634909	-1.62602001847699
346	0.692	-0.0568687375634909	-1.62730832002126
347	0.694	-0.0568687375634909	-1.62730832002126
348	0.696	-0.0581570391077548	-1.62859662156552
349	0.698	-0.0555804360192269	-1.63117322465405
350	0.7	-0.0658868483733386	-1.63117322465405
351	0.702	-0.0645985468290746	-1.63246152619831
352	0.704	-0.0607336421962827	-1.63246152619831
353	0.706	-0.0645985468290746	-1.63117322465405
354	0.708	-0.0620219437405467	-1.62859662156552
355	0.71	-0.0568687375634909	-1.62730832002126
356	0.712	-0.0581570391077548	-1.62730832002126
357	0.714	-0.0581570391077548	-1.62730832002126
358	0.716	-0.0581570391077548	-1.62859662156552
359	0.718	-0.0645985468290746	-1.63117322465405
360	0.72	-0.0633102452848107	-1.63246152619831
361	0.722	-0.0607336421962827	-1.63246152619831
362	0.724	-0.0645985468290746	-1.63246152619831
363	0.726	-0.0633102452848107	-1.63117322465405
364	0.728	-0.0671751499176025	-1.62859662156552
365	0.73	-0.0542921344749629	-1.62730832002126
366	0.732	-0.0581570391077548	-1.62730832002126
367	0.734	-0.0542921344749629	-1.62730832002126
368	0.736	-0.0542921344749629	-1.62859662156552
369	0.738	-0.0568687375634909	-1.63117322465405
370	0.74	-0.0594453406520188	-1.63246152619831
371	0.742	-0.0594453406520188	-1.63246152619831
372	0.744	-0.0581570391077548	-1.63246152619831
373	0.746	-0.0658868483733386	-1.63117322465405
374	0.748	-0.0594453406520188	-1.62859662156552
375	0.75	-0.0568687375634909	-1.62730832002126
376	0.752	-0.0607336421962827	-1.62730832002126
377	0.754	-0.0581570391077548	-1.62730832002126
378	0.756	-0.0581570391077548	-1.62730832002126
379	0.758	-0.0607336421962827	-1.63117322465405
380	0.76	-0.0633102452848107	-1.63246152619831
381	0.762	-0.0671751499176025	-1.63246152619831
382	0.764	-0.0581570391077548	-1.63246152619831
383	0.766	-0.0620219437405467	-1.63117322465405
384	0.768	-0.0594453406520188	-1.62859662156552
385	0.77	-0.0620219437405467	-1.62730832002126
386	0.772	-0.053003832930699	-1.62730832002126
387	0.774	-0.0620219437405467	-1.62730832002126
388	0.776	-0.0633102452848107	-1.62859662156552
389	0.778	-0.0620219437405467	-1.63117322465405
390	0.78	-0.0633102452848107	-1.63246152619831
391	0.782	-0.0645985468290746	-1.63117322465405
392	0.784	-0.0658868483733386	-1.63117322465405
393	0.786	-0.0620219437405467	-1.63117322465405
394	0.788	-0.0581570391077548	-1.62859662156552
395	0.79	-0.0568687375634909	-1.62730832002126
396	0.792	-0.0568687375634909	-1.62730832002126
397	0.794	-0.0555804360192269	-1.62730832002126
398	0.796	-0.0542921344749629	-1.62859662156552
399	0.798	-0.0581570391077548	-1.63117322465405
400	0.8	-0.0594453406520188	-1.63117322465405
401	0.802	-0.0594453406520188	-1.63246152619831
402	0.804	-0.0568687375634909	-1.63246152619831
403	0.806	-0.0542921344749629	-1.63246152619831
404	0.808	-0.0594453406520188	-1.62859662156552
405	0.81	-0.053003832930699	-1.62859662156552
406	0.812	-0.0581570391077548	-1.62730832002126
407	0.814	-0.051715531386435	-1.62730832002126
408	0.816	-0.0658868483733386	-1.62859662156552
409	0.818	-0.0607336421962827	-1.63117322465405
410	0.82	-0.0620219437405467	-1.63246152619831
411	0.822	-0.0645985468290746	-1.63117322465405
412	0.824	-0.0684634514618665	-1.63246152619831
413	0.826	-0.0633102452848107	-1.63117322465405
414	0.828	-0.0620219437405467	-1.62859662156552
415	0.83	-0.0594453406520188	-1.62730832002126
416	0.832	-0.0568687375634909	-1.62730832002126
